# Hz S DB R 50
! CMT, S5065, 24347010, 24.3.4/3
! Date: 10/15/2024 11:19:56 AM
! Data: Format (Calibration Info)
! Freq	S11:dB/Ang(F2)	S21:dB/Ang(F2)	S12:dB/Ang(F2)	S22:dB/Ang(F2)
5.00000000000E+08	-1.41115144935E+01	-3.31069137093E+01	-7.83777018457E-01	-1.22703986892E+02	-7.80661679617E-01	-1.22636857596E+02	-1.42063839418E+01	-3.60058388420E+01
5.00600000000E+08	-1.41191296681E+01	-3.33446315873E+01	-7.86186342629E-01	-1.22861582849E+02	-7.85870765316E-01	-1.22808027258E+02	-1.42133365018E+01	-3.62775264605E+01
5.01200000000E+08	-1.41230194933E+01	-3.35771917434E+01	-7.93986919913E-01	-1.23023547866E+02	-7.93330880285E-01	-1.22984493966E+02	-1.42193229638E+01	-3.65699076366E+01
5.01800000000E+08	-1.41382038906E+01	-3.38323269728E+01	-7.98137372074E-01	-1.23171941687E+02	-7.98032782870E-01	-1.23123540130E+02	-1.42330762892E+01	-3.68538242709E+01
5.02400000000E+08	-1.41560265241E+01	-3.40383454839E+01	-8.02265715952E-01	-1.23340389866E+02	-8.00747200907E-01	-1.23286989679E+02	-1.42570930868E+01	-3.71136000010E+01
5.03000000000E+08	-1.41715685353E+01	-3.42073982116E+01	-8.03244289032E-01	-1.23487506104E+02	-8.04118153459E-01	-1.23430005378E+02	-1.42747208838E+01	-3.72843342311E+01
5.03600000000E+08	-1.41854014720E+01	-3.43303080898E+01	-8.05735141706E-01	-1.23648593142E+02	-8.05361950670E-01	-1.23561849169E+02	-1.43008492914E+01	-3.74298656395E+01
5.04200000000E+08	-1.41937826243E+01	-3.44755816876E+01	-8.07045789854E-01	-1.23813258376E+02	-8.04274474466E-01	-1.23722246027E+02	-1.43200471568E+01	-3.75594040598E+01
5.04800000000E+08	-1.42021556717E+01	-3.46046604097E+01	-8.07534424919E-01	-1.23974789696E+02	-8.04255533746E-01	-1.23900370913E+02	-1.43252181619E+01	-3.76659075420E+01
5.05400000000E+08	-1.42076085609E+01	-3.47619316810E+01	-8.07848952048E-01	-1.24127646619E+02	-8.06149328794E-01	-1.24068995303E+02	-1.43369896504E+01	-3.77654119874E+01
5.06000000000E+08	-1.42077501556E+01	-3.48899251003E+01	-8.09438777681E-01	-1.24309103829E+02	-8.04700758231E-01	-1.24231739900E+02	-1.43398371782E+01	-3.78460445207E+01
5.06600000000E+08	-1.42140441803E+01	-3.50416125307E+01	-8.10115293030E-01	-1.24488724210E+02	-8.08998338698E-01	-1.24408411059E+02	-1.43384927355E+01	-3.79730217008E+01
5.07200000000E+08	-1.42167091761E+01	-3.52251885135E+01	-8.14524767920E-01	-1.24672910871E+02	-8.07569712633E-01	-1.24587097347E+02	-1.43361264564E+01	-3.81013377403E+01
5.07800000000E+08	-1.42192023281E+01	-3.53736103634E+01	-8.15923868179E-01	-1.24824426466E+02	-8.07585255454E-01	-1.24757546684E+02	-1.43338756102E+01	-3.82057213316E+01
5.08400000000E+08	-1.42269549827E+01	-3.54966851351E+01	-8.18703228545E-01	-1.25019965115E+02	-8.12555153051E-01	-1.24949266440E+02	-1.43280248573E+01	-3.83679323621E+01
5.09000000000E+08	-1.42299168546E+01	-3.56442867039E+01	-8.20684162177E-01	-1.25168738247E+02	-8.13827461453E-01	-1.25116627459E+02	-1.43208153050E+01	-3.85662473289E+01
5.09600000000E+08	-1.42363482411E+01	-3.57992520294E+01	-8.21877135057E-01	-1.25339095666E+02	-8.16508837089E-01	-1.25306543905E+02	-1.43154969833E+01	-3.87436746555E+01
5.10200000000E+08	-1.42358200298E+01	-3.58811898265E+01	-8.22962117759E-01	-1.25526790519E+02	-8.18044954113E-01	-1.25472203701E+02	-1.43130495220E+01	-3.89333466405E+01
5.10800000000E+08	-1.42319035397E+01	-3.60220545734E+01	-8.24100996128E-01	-1.25701456085E+02	-8.18557800662E-01	-1.25660586921E+02	-1.43081533531E+01	-3.91557671263E+01
5.11400000000E+08	-1.42253826688E+01	-3.61715359679E+01	-8.26791133758E-01	-1.25897112157E+02	-8.19029175137E-01	-1.25852531767E+02	-1.43068308187E+01	-3.93224889182E+01
5.12000000000E+08	-1.42187422341E+01	-3.63452905798E+01	-8.31014769383E-01	-1.26086820878E+02	-8.23839548706E-01	-1.26045250446E+02	-1.42997390360E+01	-3.95054428281E+01
5.12600000000E+08	-1.42125874032E+01	-3.65649308193E+01	-8.31870191978E-01	-1.26259652208E+02	-8.24372904259E-01	-1.26210679856E+02	-1.42933675843E+01	-3.97364691004E+01
5.13200000000E+08	-1.42114990537E+01	-3.67557823151E+01	-8.35427286397E-01	-1.26431377966E+02	-8.29658877511E-01	-1.26406995326E+02	-1.42932468059E+01	-3.99732618091E+01
5.13800000000E+08	-1.42063688942E+01	-3.69591599437E+01	-8.39404946423E-01	-1.26630156311E+02	-8.32648207910E-01	-1.26588641164E+02	-1.42878469895E+01	-4.02022283435E+01
5.14400000000E+08	-1.42034578538E+01	-3.71721722450E+01	-8.42255356249E-01	-1.26798331656E+02	-8.37476322228E-01	-1.26786327414E+02	-1.42865107173E+01	-4.04405982873E+01
5.15000000000E+08	-1.42070022012E+01	-3.73895156401E+01	-8.47049722459E-01	-1.26987365452E+02	-8.42298877108E-01	-1.26960091674E+02	-1.42872612085E+01	-4.06661577810E+01
5.15600000000E+08	-1.42072336200E+01	-3.75912126569E+01	-8.56613644877E-01	-1.27162518025E+02	-8.45775644314E-01	-1.27125366559E+02	-1.42872568632E+01	-4.09086495398E+01
5.16200000000E+08	-1.42116821143E+01	-3.78424596468E+01	-8.58501862746E-01	-1.27343771643E+02	-8.50720590528E-01	-1.27327363560E+02	-1.42890189977E+01	-4.11583797108E+01
5.16800000000E+08	-1.42151839673E+01	-3.80335742324E+01	-8.61241913493E-01	-1.27511486788E+02	-8.56209511956E-01	-1.27499767826E+02	-1.42840822568E+01	-4.13895024877E+01
5.17400000000E+08	-1.42188822822E+01	-3.82584355378E+01	-8.66503152393E-01	-1.27692820531E+02	-8.61634144709E-01	-1.27675786740E+02	-1.42865891155E+01	-4.16506345322E+01
5.18000000000E+08	-1.42243131871E+01	-3.84798880663E+01	-8.68972626974E-01	-1.27862058316E+02	-8.64524495023E-01	-1.27846724677E+02	-1.42878273982E+01	-4.18927736551E+01
5.18600000000E+08	-1.42366622360E+01	-3.86728386419E+01	-8.76069406254E-01	-1.28040217776E+02	-8.66476966284E-01	-1.28030733105E+02	-1.42868803979E+01	-4.21210612778E+01
5.19200000000E+08	-1.42413989023E+01	-3.88571762803E+01	-8.82310573826E-01	-1.28209600638E+02	-8.73283895691E-01	-1.28193763552E+02	-1.42895911783E+01	-4.23800197915E+01
5.19800000000E+08	-1.42464284732E+01	-3.90486824310E+01	-8.83340139508E-01	-1.28374401391E+02	-8.76129613929E-01	-1.28377411784E+02	-1.42888578071E+01	-4.26151465619E+01
5.20400000000E+08	-1.42522802098E+01	-3.92328337010E+01	-8.87413747894E-01	-1.28539474912E+02	-8.83442441961E-01	-1.28570370010E+02	-1.42884257611E+01	-4.28876656562E+01
5.21000000000E+08	-1.42524963076E+01	-3.93803108533E+01	-8.90289656389E-01	-1.28700850621E+02	-8.87420530612E-01	-1.28728359186E+02	-1.42933874493E+01	-4.31452036400E+01
5.21600000000E+08	-1.42539517043E+01	-3.95574229166E+01	-8.94013981823E-01	-1.28893477468E+02	-8.90839512380E-01	-1.28900134874E+02	-1.42968653482E+01	-4.34460194617E+01
5.22200000000E+08	-1.42552948877E+01	-3.97840567981E+01	-8.95347768894E-01	-1.29063768632E+02	-8.93987435329E-01	-1.29077868715E+02	-1.43000331592E+01	-4.37420566434E+01
5.22800000000E+08	-1.42567470096E+01	-4.00053447369E+01	-9.01243260291E-01	-1.29230469839E+02	-9.01945041709E-01	-1.29248170619E+02	-1.43153964583E+01	-4.40048038921E+01
5.23400000000E+08	-1.42592923651E+01	-4.02226129152E+01	-9.04132944358E-01	-1.29415782966E+02	-9.09357295645E-01	-1.29425896725E+02	-1.43230233942E+01	-4.42863534841E+01
5.24000000000E+08	-1.42663650706E+01	-4.04555337405E+01	-9.08979476202E-01	-1.29608147597E+02	-9.12711112651E-01	-1.29586036851E+02	-1.43323076774E+01	-4.45120127935E+01
5.24600000000E+08	-1.42740153517E+01	-4.06884417045E+01	-9.13042068729E-01	-1.29768296095E+02	-9.16275841296E-01	-1.29749564407E+02	-1.43419029717E+01	-4.47713244717E+01
5.25200000000E+08	-1.42832934880E+01	-4.08990683809E+01	-9.17332531821E-01	-1.29946562705E+02	-9.20207185152E-01	-1.29931718528E+02	-1.43506416432E+01	-4.50086715249E+01
5.25800000000E+08	-1.42907515673E+01	-4.11272657554E+01	-9.22299877787E-01	-1.30121133919E+02	-9.26523943771E-01	-1.30098156413E+02	-1.43635102676E+01	-4.53062282096E+01
5.26400000000E+08	-1.42999573195E+01	-4.13035384561E+01	-9.26127176405E-01	-1.30268509263E+02	-9.29996648643E-01	-1.30275494876E+02	-1.43782520714E+01	-4.55992589774E+01
5.27000000000E+08	-1.43080583123E+01	-4.15569520486E+01	-9.28258233776E-01	-1.30463394975E+02	-9.36069569771E-01	-1.30438570085E+02	-1.43912662185E+01	-4.58214328854E+01
5.27600000000E+08	-1.43183960109E+01	-4.17205536755E+01	-9.35539436004E-01	-1.30615148453E+02	-9.40081707286E-01	-1.30590356276E+02	-1.44091393175E+01	-4.60855335578E+01
5.28200000000E+08	-1.43324932495E+01	-4.19711925323E+01	-9.35636895298E-01	-1.30797775746E+02	-9.46151343134E-01	-1.30758398373E+02	-1.44279546580E+01	-4.63292296477E+01
5.28800000000E+08	-1.43486395681E+01	-4.21215731271E+01	-9.39628894126E-01	-1.30967169892E+02	-9.48292185981E-01	-1.30923107748E+02	-1.44501346873E+01	-4.64992614050E+01
5.29400000000E+08	-1.43503722039E+01	-4.22745190263E+01	-9.45219963418E-01	-1.31140192327E+02	-9.50722516311E-01	-1.31070412369E+02	-1.44696146705E+01	-4.67283209337E+01
5.30000000000E+08	-1.43611595294E+01	-4.24570388781E+01	-9.48038479334E-01	-1.31322556305E+02	-9.51873800526E-01	-1.31259468875E+02	-1.44903863366E+01	-4.68553115528E+01
5.30600000000E+08	-1.43732584228E+01	-4.25952514905E+01	-9.51140689016E-01	-1.31488994102E+02	-9.54169081358E-01	-1.31422472948E+02	-1.45016177313E+01	-4.69733152299E+01
5.31200000000E+08	-1.43771817316E+01	-4.27741024052E+01	-9.53612054239E-01	-1.31656282488E+02	-9.54304878678E-01	-1.31606871336E+02	-1.45045976506E+01	-4.71190804624E+01
5.31800000000E+08	-1.43827037480E+01	-4.29546283701E+01	-9.56507868318E-01	-1.31840067121E+02	-9.58695436888E-01	-1.31800155923E+02	-1.45032576600E+01	-4.73338464940E+01
5.32400000000E+08	-1.43844912882E+01	-4.31317849488E+01	-9.59758082788E-01	-1.32012236543E+02	-9.60284358982E-01	-1.31971432689E+02	-1.45045112525E+01	-4.75259349659E+01
5.33000000000E+08	-1.43909534314E+01	-4.33212859993E+01	-9.63241032735E-01	-1.32191681276E+02	-9.65664910876E-01	-1.32148875995E+02	-1.45132392924E+01	-4.77660491531E+01
5.33600000000E+08	-1.43986501366E+01	-4.35149106791E+01	-9.66550506845E-01	-1.32375882597E+02	-9.68686884649E-01	-1.32305700615E+02	-1.45216323137E+01	-4.79967338540E+01
5.34200000000E+08	-1.44019866583E+01	-4.37263106424E+01	-9.69344164811E-01	-1.32559265183E+02	-9.73754601177E-01	-1.32482145832E+02	-1.45390674110E+01	-4.82291291154E+01
5.34800000000E+08	-1.44098271914E+01	-4.39140151643E+01	-9.72868977572E-01	-1.32735916655E+02	-9.76625168080E-01	-1.32674325507E+02	-1.45465269663E+01	-4.84425296552E+01
5.35400000000E+08	-1.44150711672E+01	-4.40934116363E+01	-9.79019400666E-01	-1.32918723868E+02	-9.79648926541E-01	-1.32847163468E+02	-1.45574960126E+01	-4.86338775129E+01
5.36000000000E+08	-1.44237100860E+01	-4.43104563159E+01	-9.82621697601E-01	-1.33092545199E+02	-9.81393478839E-01	-1.33028160359E+02	-1.45651958564E+01	-4.88065880677E+01
5.36600000000E+08	-1.44294836734E+01	-4.44599414298E+01	-9.85599556636E-01	-1.33279330621E+02	-9.85114052134E-01	-1.33202802033E+02	-1.45733790063E+01	-4.90012435842E+01
5.37200000000E+08	-1.44335052353E+01	-4.46440560664E+01	-9.90110555044E-01	-1.33471837824E+02	-9.87856223798E-01	-1.33409020326E+02	-1.45753457478E+01	-4.92031046213E+01
5.37800000000E+08	-1.44316713023E+01	-4.48347500291E+01	-9.90046266275E-01	-1.33657477112E+02	-9.93483964288E-01	-1.33589613966E+02	-1.45788788008E+01	-4.94338541127E+01
5.38400000000E+08	-1.44279333632E+01	-4.50210624891E+01	-9.95617557849E-01	-1.33858112793E+02	-9.97124380438E-01	-1.33779994524E+02	-1.45880862933E+01	-4.97027084186E+01
5.39000000000E+08	-1.44304799111E+01	-4.52983339314E+01	-1.00092303081E+00	-1.34029548175E+02	-1.00350463766E+00	-1.33963676701E+02	-1.45955225274E+01	-4.99255908334E+01
5.39600000000E+08	-1.44322523042E+01	-4.55190888844E+01	-1.00773918275E+00	-1.34225703848E+02	-1.00724865461E+00	-1.34163707594E+02	-1.46034952063E+01	-5.01811471029E+01
5.40200000000E+08	-1.44334718412E+01	-4.57830235469E+01	-1.01223205746E+00	-1.34407702950E+02	-1.01321739472E+00	-1.34338172044E+02	-1.46107352399E+01	-5.04329823823E+01
5.40800000000E+08	-1.44401442821E+01	-4.60557210803E+01	-1.01727734955E+00	-1.34614076632E+02	-1.01886421301E+00	-1.34530298227E+02	-1.46200426870E+01	-5.06930408243E+01
5.41400000000E+08	-1.44434935882E+01	-4.63320714085E+01	-1.02535082847E+00	-1.34775742290E+02	-1.02328841214E+00	-1.34698260605E+02	-1.46335212965E+01	-5.09434643864E+01
5.42000000000E+08	-1.44530879394E+01	-4.66089270182E+01	-1.03154933761E+00	-1.34976655888E+02	-1.02826281531E+00	-1.34890201325E+02	-1.46430644601E+01	-5.12394047325E+01
5.42600000000E+08	-1.44624063689E+01	-4.68861017157E+01	-1.04063663501E+00	-1.35163266400E+02	-1.03366175892E+00	-1.35056071338E+02	-1.46572441169E+01	-5.15220016055E+01
5.43200000000E+08	-1.44732394089E+01	-4.72007474594E+01	-1.04753099339E+00	-1.35333258804E+02	-1.04198101850E+00	-1.35235588408E+02	-1.46778494198E+01	-5.17951325252E+01
5.43800000000E+08	-1.44871968792E+01	-4.75184291185E+01	-1.05396808373E+00	-1.35489617960E+02	-1.04492080638E+00	-1.35411693216E+02	-1.46992476725E+01	-5.20593715701E+01
5.44400000000E+08	-1.45110446601E+01	-4.78201254928E+01	-1.06193776258E+00	-1.35665348966E+02	-1.05380254278E+00	-1.35587100409E+02	-1.47146365532E+01	-5.22655809957E+01
5.45000000000E+08	-1.45325136687E+01	-4.80879406284E+01	-1.06547737102E+00	-1.35847146782E+02	-1.05653129258E+00	-1.35769434837E+02	-1.47304982060E+01	-5.25168251967E+01
5.45600000000E+08	-1.45541223216E+01	-4.83325842852E+01	-1.06972311699E+00	-1.36008076441E+02	-1.06320105032E+00	-1.35949955506E+02	-1.47494668263E+01	-5.27218850556E+01
5.46200000000E+08	-1.45733852852E+01	-4.85741422272E+01	-1.07642706374E+00	-1.36175836546E+02	-1.07152214993E+00	-1.36119752602E+02	-1.47669210964E+01	-5.29975388780E+01
5.46800000000E+08	-1.45979089570E+01	-4.88137414045E+01	-1.08116479002E+00	-1.36347063567E+02	-1.07495632728E+00	-1.36286066607E+02	-1.47841042098E+01	-5.32376253444E+01
5.47400000000E+08	-1.46190957614E+01	-4.91076033756E+01	-1.08858819508E+00	-1.36507925804E+02	-1.08076908957E+00	-1.36459887767E+02	-1.48057374293E+01	-5.35061533262E+01
5.48000000000E+08	-1.46453194627E+01	-4.93368315146E+01	-1.09398669333E+00	-1.36661429715E+02	-1.08767292943E+00	-1.36628293156E+02	-1.48282948592E+01	-5.37404231192E+01
5.48600000000E+08	-1.46780380359E+01	-4.95603365401E+01	-1.09693982942E+00	-1.36832156696E+02	-1.09193994740E+00	-1.36790831420E+02	-1.48547126471E+01	-5.40190044318E+01
5.49200000000E+08	-1.47053347555E+01	-4.97337514936E+01	-1.10076065903E+00	-1.37003346447E+02	-1.09585194430E+00	-1.36970971336E+02	-1.48774862324E+01	-5.42029214283E+01
5.49800000000E+08	-1.47285437709E+01	-4.99087559398E+01	-1.10451394923E+00	-1.37172246024E+02	-1.09829473225E+00	-1.37146504172E+02	-1.49008420388E+01	-5.44150573820E+01
5.50400000000E+08	-1.47474424754E+01	-5.00593722477E+01	-1.10607086678E+00	-1.37341519232E+02	-1.10360802130E+00	-1.37329938470E+02	-1.49200820662E+01	-5.46009226482E+01
5.51000000000E+08	-1.47661991747E+01	-5.02332906159E+01	-1.11046285706E+00	-1.37516153669E+02	-1.10652362271E+00	-1.37518169962E+02	-1.49318125308E+01	-5.48040625641E+01
5.51600000000E+08	-1.47790187339E+01	-5.04097227059E+01	-1.11388965850E+00	-1.37708355159E+02	-1.11252103538E+00	-1.37694789055E+02	-1.49485190256E+01	-5.50460381050E+01
5.52200000000E+08	-1.47915414929E+01	-5.06286511398E+01	-1.11611462122E+00	-1.37903309576E+02	-1.11618796949E+00	-1.37868931241E+02	-1.49624540194E+01	-5.53169919109E+01
5.52800000000E+08	-1.48050767563E+01	-5.08146773599E+01	-1.12053756069E+00	-1.38080981446E+02	-1.12164996600E+00	-1.38058203679E+02	-1.49854688290E+01	-5.55590440923E+01
5.53400000000E+08	-1.48173638194E+01	-5.10493108119E+01	-1.12812920375E+00	-1.38266872396E+02	-1.12612989703E+00	-1.38242296423E+02	-1.50100770416E+01	-5.58352560801E+01
5.54000000000E+08	-1.48303987760E+01	-5.13184036565E+01	-1.13013167226E+00	-1.38452169912E+02	-1.13104404837E+00	-1.38406542624E+02	-1.50365216480E+01	-5.60595110158E+01
5.54600000000E+08	-1.48447306531E+01	-5.15626436241E+01	-1.13413742512E+00	-1.38640648817E+02	-1.13525019958E+00	-1.38592927348E+02	-1.50603724093E+01	-5.62982626280E+01
5.55200000000E+08	-1.48599132419E+01	-5.17959315479E+01	-1.14231586189E+00	-1.38823312884E+02	-1.14129856272E+00	-1.38778470245E+02	-1.50834862088E+01	-5.65664627332E+01
5.55800000000E+08	-1.48664255012E+01	-5.20937938573E+01	-1.14925185242E+00	-1.39002337662E+02	-1.14696567711E+00	-1.38949501924E+02	-1.51050060053E+01	-5.67871461322E+01
5.56400000000E+08	-1.48884875077E+01	-5.23964849274E+01	-1.15775056387E+00	-1.39180159478E+02	-1.15297563761E+00	-1.39133494185E+02	-1.51320169585E+01	-5.70883496630E+01
5.57000000000E+08	-1.49167261970E+01	-5.27276571293E+01	-1.16360166990E+00	-1.39343092459E+02	-1.16164523363E+00	-1.39318449221E+02	-1.51636791094E+01	-5.73589948586E+01
5.57600000000E+08	-1.49500129087E+01	-5.30444584901E+01	-1.16871304616E+00	-1.39492887059E+02	-1.16791082701E+00	-1.39460836965E+02	-1.51997681445E+01	-5.76318921413E+01
5.58200000000E+08	-1.49897404464E+01	-5.32518573003E+01	-1.17437970684E+00	-1.39671627225E+02	-1.17416204359E+00	-1.39632646324E+02	-1.52426331128E+01	-5.78281250755E+01
5.58800000000E+08	-1.50223766426E+01	-5.34519531921E+01	-1.17582421450E+00	-1.39829817092E+02	-1.17801245448E+00	-1.39799364223E+02	-1.52815188703E+01	-5.80327338068E+01
5.59400000000E+08	-1.50519506688E+01	-5.36285589334E+01	-1.17633495398E+00	-1.40015300451E+02	-1.18131258466E+00	-1.39967197865E+02	-1.53214259989E+01	-5.81586901087E+01
5.60000000000E+08	-1.50824919074E+01	-5.38622735759E+01	-1.18040967460E+00	-1.40194286937E+02	-1.18368633783E+00	-1.40141548361E+02	-1.53616916420E+01	-5.82756292518E+01
5.60600000000E+08	-1.51108765959E+01	-5.40060475950E+01	-1.18523366056E+00	-1.40381212007E+02	-1.18464878958E+00	-1.40294578355E+02	-1.53927116282E+01	-5.83361706962E+01
5.61200000000E+08	-1.51357687508E+01	-5.41937241200E+01	-1.18838975054E+00	-1.40561812975E+02	-1.18648832297E+00	-1.40467277647E+02	-1.54150464991E+01	-5.83919317299E+01
5.61800000000E+08	-1.51623350405E+01	-5.44184539219E+01	-1.19044980879E+00	-1.40742848027E+02	-1.18763071938E+00	-1.40655883284E+02	-1.54307978822E+01	-5.84808702104E+01
5.62400000000E+08	-1.51943189187E+01	-5.45451991150E+01	-1.19607597947E+00	-1.40924118032E+02	-1.19105972633E+00	-1.40850434278E+02	-1.54425327645E+01	-5.86203934731E+01
5.63000000000E+08	-1.52198728054E+01	-5.47502566936E+01	-1.19865825960E+00	-1.41107925033E+02	-1.19377411708E+00	-1.41044610451E+02	-1.54615655209E+01	-5.87833837760E+01
5.63600000000E+08	-1.52440643140E+01	-5.49091610225E+01	-1.20301594401E+00	-1.41301199951E+02	-1.19687453134E+00	-1.41233320697E+02	-1.54771744057E+01	-5.89498639725E+01
5.64200000000E+08	-1.52738830442E+01	-5.50349506248E+01	-1.20745624378E+00	-1.41467624276E+02	-1.20124195740E+00	-1.41427421271E+02	-1.54900422363E+01	-5.90789394400E+01
5.64800000000E+08	-1.52934439787E+01	-5.51507754945E+01	-1.20863088391E+00	-1.41662669400E+02	-1.20457016042E+00	-1.41609638623E+02	-1.55114342304E+01	-5.92372448929E+01
5.65400000000E+08	-1.53201720032E+01	-5.52995564218E+01	-1.21286169665E+00	-1.41850232679E+02	-1.20770029511E+00	-1.41811361990E+02	-1.55317518133E+01	-5.94087664522E+01
5.66000000000E+08	-1.53349591965E+01	-5.54417437168E+01	-1.21382697380E+00	-1.42022866219E+02	-1.21031615038E+00	-1.42013688808E+02	-1.55490595350E+01	-5.95465604956E+01
5.66600000000E+08	-1.53558382055E+01	-5.55676032377E+01	-1.21832768861E+00	-1.42228390615E+02	-1.21502397724E+00	-1.42204514707E+02	-1.55593687438E+01	-5.97093086694E+01
5.67200000000E+08	-1.53679735066E+01	-5.57155805539E+01	-1.21825833863E+00	-1.42420796172E+02	-1.21690708449E+00	-1.42406126891E+02	-1.55756057280E+01	-5.98488534787E+01
5.67800000000E+08	-1.53901938694E+01	-5.58818794988E+01	-1.22252871884E+00	-1.42622284095E+02	-1.22602872735E+00	-1.42592276765E+02	-1.55925081152E+01	-5.99973799866E+01
5.68400000000E+08	-1.54104206995E+01	-5.60144890876E+01	-1.22842210168E+00	-1.42825082759E+02	-1.22460299795E+00	-1.42768109742E+02	-1.56088225009E+01	-6.01129358600E+01
