# Hz S DB R 50
! CMT, S5065, 24347010, 24.3.4/3
! Date: 10/15/2024 11:18:17 AM
! Data: Format (Calibration Info)
! Freq	S11:dB/Ang(F2)	S21:dB/Ang(F2)	S12:dB/Ang(F2)	S22:dB/Ang(F2)
5.00000000000E+08	-1.41252017867E+01	-3.31394406875E+01	-7.86703903216E-01	-1.22713004495E+02	-7.81113402299E-01	-1.22681087304E+02	-1.41920305618E+01	-3.58811296590E+01
5.00600000000E+08	-1.41303496498E+01	-3.33722043697E+01	-7.90668025134E-01	-1.22878787577E+02	-7.88897700942E-01	-1.22859143383E+02	-1.42027472445E+01	-3.61565935044E+01
5.01200000000E+08	-1.41333857845E+01	-3.36011116706E+01	-7.98363878491E-01	-1.23039171571E+02	-7.92871891292E-01	-1.23016085799E+02	-1.42051221458E+01	-3.64211063224E+01
5.01800000000E+08	-1.41424162534E+01	-3.38333598843E+01	-8.00861333496E-01	-1.23196472368E+02	-7.98354768153E-01	-1.23179693884E+02	-1.42156196848E+01	-3.67129046041E+01
5.02400000000E+08	-1.41498794681E+01	-3.40265297203E+01	-8.05364169657E-01	-1.23367936481E+02	-7.98899072932E-01	-1.23347655462E+02	-1.42307082452E+01	-3.69435671812E+01
5.03000000000E+08	-1.41573395101E+01	-3.42356964436E+01	-8.06878961534E-01	-1.23521786300E+02	-8.06820723685E-01	-1.23499777929E+02	-1.42415011658E+01	-3.71676151615E+01
5.03600000000E+08	-1.41657359337E+01	-3.44153705043E+01	-8.12416299752E-01	-1.23675366102E+02	-8.08731714246E-01	-1.23661809986E+02	-1.42568835657E+01	-3.73873684164E+01
5.04200000000E+08	-1.41724299830E+01	-3.46449215964E+01	-8.13499168907E-01	-1.23848012122E+02	-8.13144222450E-01	-1.23823208979E+02	-1.42734273798E+01	-3.76166012827E+01
5.04800000000E+08	-1.41796369322E+01	-3.48232041336E+01	-8.15787697522E-01	-1.24003759397E+02	-8.17400900073E-01	-1.23976505591E+02	-1.42872830519E+01	-3.78231211910E+01
5.05400000000E+08	-1.41928722321E+01	-3.50400040768E+01	-8.18701914739E-01	-1.24152452848E+02	-8.20284695160E-01	-1.24128953471E+02	-1.43078164289E+01	-3.79763883029E+01
5.06000000000E+08	-1.41990183736E+01	-3.51897241589E+01	-8.19652963833E-01	-1.24323976659E+02	-8.21898709655E-01	-1.24279818882E+02	-1.43263019405E+01	-3.81111583879E+01
5.06600000000E+08	-1.42108799698E+01	-3.53635835067E+01	-8.19985202115E-01	-1.24503701426E+02	-8.24722463120E-01	-1.24447203605E+02	-1.43383560968E+01	-3.82394495030E+01
5.07200000000E+08	-1.42180926971E+01	-3.55387359583E+01	-8.22044412465E-01	-1.24671285961E+02	-8.25230168656E-01	-1.24588448192E+02	-1.43482925900E+01	-3.83401598736E+01
5.07800000000E+08	-1.42243436884E+01	-3.56833937523E+01	-8.24928849243E-01	-1.24819050205E+02	-8.24107052992E-01	-1.24766614155E+02	-1.43516447769E+01	-3.84152692959E+01
5.08400000000E+08	-1.42311635144E+01	-3.58280501015E+01	-8.27512090973E-01	-1.25019220704E+02	-8.25607664660E-01	-1.24937003735E+02	-1.43501916207E+01	-3.85145835857E+01
5.09000000000E+08	-1.42368023530E+01	-3.60026057901E+01	-8.28621070287E-01	-1.25178701378E+02	-8.24726573496E-01	-1.25111662027E+02	-1.43460842189E+01	-3.86535349509E+01
5.09600000000E+08	-1.42423369781E+01	-3.61722870098E+01	-8.29932785870E-01	-1.25344790834E+02	-8.27154273020E-01	-1.25304366296E+02	-1.43389962980E+01	-3.88092795004E+01
5.10200000000E+08	-1.42481958528E+01	-3.62986487910E+01	-8.33300646888E-01	-1.25525787191E+02	-8.27819633968E-01	-1.25471061790E+02	-1.43324787222E+01	-3.89700513101E+01
5.10800000000E+08	-1.42542119574E+01	-3.64530746831E+01	-8.36301192027E-01	-1.25696910274E+02	-8.28008299476E-01	-1.25653437649E+02	-1.43227605664E+01	-3.91728536042E+01
5.11400000000E+08	-1.42553626987E+01	-3.65781193367E+01	-8.38536601472E-01	-1.25883294493E+02	-8.32787050941E-01	-1.25838345797E+02	-1.43213096989E+01	-3.93678313209E+01
5.12000000000E+08	-1.42557461273E+01	-3.67256859455E+01	-8.42908745696E-01	-1.26053475552E+02	-8.34994373987E-01	-1.26038276192E+02	-1.43132861428E+01	-3.95706255446E+01
5.12600000000E+08	-1.42544776941E+01	-3.69177109926E+01	-8.42974510130E-01	-1.26230334490E+02	-8.37078653413E-01	-1.26224349983E+02	-1.43114901520E+01	-3.97938302246E+01
5.13200000000E+08	-1.42563571020E+01	-3.70934752851E+01	-8.46512904942E-01	-1.26401565733E+02	-8.41304625981E-01	-1.26398167077E+02	-1.43101998896E+01	-4.00389707354E+01
5.13800000000E+08	-1.42553012562E+01	-3.72652058092E+01	-8.49557067114E-01	-1.26589718570E+02	-8.46027993589E-01	-1.26577449966E+02	-1.43073579724E+01	-4.02336003952E+01
5.14400000000E+08	-1.42577588703E+01	-3.74406505085E+01	-8.51298110712E-01	-1.26774586387E+02	-8.47764064167E-01	-1.26764089254E+02	-1.43044163307E+01	-4.04545811968E+01
5.15000000000E+08	-1.42602398583E+01	-3.76033368495E+01	-8.54938910306E-01	-1.26921146129E+02	-8.54345669090E-01	-1.26949554494E+02	-1.43071047767E+01	-4.06848058223E+01
5.15600000000E+08	-1.42609693964E+01	-3.77637947195E+01	-8.58425158219E-01	-1.27129497267E+02	-8.56669893316E-01	-1.27121239416E+02	-1.43074661693E+01	-4.09122231100E+01
5.16200000000E+08	-1.42587766434E+01	-3.79553875526E+01	-8.61329712355E-01	-1.27319730824E+02	-8.60493404605E-01	-1.27307152087E+02	-1.43063017592E+01	-4.11369613243E+01
5.16800000000E+08	-1.42554953450E+01	-3.81335184752E+01	-8.65056158873E-01	-1.27488999646E+02	-8.65942869282E-01	-1.27488288627E+02	-1.42989165517E+01	-4.13761228113E+01
5.17400000000E+08	-1.42529629948E+01	-3.83392941659E+01	-8.67580257526E-01	-1.27675785692E+02	-8.69327966736E-01	-1.27656134775E+02	-1.42930347091E+01	-4.16289054905E+01
5.18000000000E+08	-1.42516531541E+01	-3.85872977899E+01	-8.72981083044E-01	-1.27864383181E+02	-8.72296532202E-01	-1.27842087281E+02	-1.42887015699E+01	-4.19076499334E+01
5.18600000000E+08	-1.42555802815E+01	-3.88325012429E+01	-8.77523621919E-01	-1.28053440737E+02	-8.79858290265E-01	-1.28022294753E+02	-1.42915016594E+01	-4.21479529878E+01
5.19200000000E+08	-1.42605973195E+01	-3.90625226230E+01	-8.85261478258E-01	-1.28238059633E+02	-8.85153076941E-01	-1.28209705511E+02	-1.42900981346E+01	-4.24845417302E+01
5.19800000000E+08	-1.42646754704E+01	-3.92789075321E+01	-8.90124027270E-01	-1.28387719944E+02	-8.92441363976E-01	-1.28374179258E+02	-1.42904648651E+01	-4.27656701718E+01
5.20400000000E+08	-1.42775340470E+01	-3.95124955612E+01	-8.97034654075E-01	-1.28553070391E+02	-8.97847494872E-01	-1.28551205241E+02	-1.42948783392E+01	-4.30934726478E+01
5.21000000000E+08	-1.42880359048E+01	-3.97267677706E+01	-9.02294515241E-01	-1.28723226580E+02	-9.01841709670E-01	-1.28708784044E+02	-1.43094788779E+01	-4.34094882151E+01
5.21600000000E+08	-1.42980610415E+01	-3.98915629335E+01	-9.04276487965E-01	-1.28873595121E+02	-9.06167422971E-01	-1.28873625563E+02	-1.43228137739E+01	-4.37096650886E+01
5.22200000000E+08	-1.43148568022E+01	-4.00632355973E+01	-9.07783896689E-01	-1.29027584479E+02	-9.09821388644E-01	-1.29029917494E+02	-1.43389126085E+01	-4.39911990362E+01
5.22800000000E+08	-1.43210767084E+01	-4.02042697154E+01	-9.11436691629E-01	-1.29191186442E+02	-9.16303446504E-01	-1.29182152450E+02	-1.43650594144E+01	-4.42330497471E+01
5.23400000000E+08	-1.43227199847E+01	-4.03496703788E+01	-9.10945842075E-01	-1.29383873376E+02	-9.20604435111E-01	-1.29350836739E+02	-1.43836384347E+01	-4.44571841429E+01
5.24000000000E+08	-1.43252903172E+01	-4.04860861252E+01	-9.14098524501E-01	-1.29556108940E+02	-9.23154732504E-01	-1.29507663537E+02	-1.43986375521E+01	-4.46074699210E+01
5.24600000000E+08	-1.43258285558E+01	-4.06747308016E+01	-9.17722067452E-01	-1.29728500086E+02	-9.23914974461E-01	-1.29668361479E+02	-1.44121052911E+01	-4.47859468700E+01
5.25200000000E+08	-1.43282587867E+01	-4.08516911677E+01	-9.21273385834E-01	-1.29908947027E+02	-9.25583534451E-01	-1.29847738654E+02	-1.44201704590E+01	-4.49672715343E+01
5.25800000000E+08	-1.43294608947E+01	-4.10372668358E+01	-9.23459723589E-01	-1.30094861575E+02	-9.29825400426E-01	-1.30034954481E+02	-1.44276914638E+01	-4.51890844804E+01
5.26400000000E+08	-1.43300243745E+01	-4.11857555095E+01	-9.26971289399E-01	-1.30259498733E+02	-9.31986216287E-01	-1.30215713843E+02	-1.44330224029E+01	-4.54037559922E+01
5.27000000000E+08	-1.43269831028E+01	-4.14164221760E+01	-9.29199755440E-01	-1.30449613562E+02	-9.36221425705E-01	-1.30400508740E+02	-1.44380259299E+01	-4.56007775764E+01
5.27600000000E+08	-1.43272696886E+01	-4.15906096772E+01	-9.33880053998E-01	-1.30625569797E+02	-9.39124418578E-01	-1.30560855168E+02	-1.44473851655E+01	-4.58215914266E+01
5.28200000000E+08	-1.43267889294E+01	-4.18356860247E+01	-9.36356064522E-01	-1.30812777324E+02	-9.44226052984E-01	-1.30754995643E+02	-1.44538869989E+01	-4.60738605894E+01
5.28800000000E+08	-1.43280915568E+01	-4.20412835493E+01	-9.41135640125E-01	-1.30987570098E+02	-9.47407281099E-01	-1.30911835124E+02	-1.44646456511E+01	-4.62524147316E+01
5.29400000000E+08	-1.43223467120E+01	-4.22891031930E+01	-9.47490628120E-01	-1.31178077167E+02	-9.51148697498E-01	-1.31094473585E+02	-1.44752341564E+01	-4.65239111885E+01
5.30000000000E+08	-1.43281846415E+01	-4.25458876069E+01	-9.51888268361E-01	-1.31360798078E+02	-9.53425401848E-01	-1.31281300551E+02	-1.44879718509E+01	-4.67047787800E+01
5.30600000000E+08	-1.43324434764E+01	-4.27767635928E+01	-9.57574823991E-01	-1.31542046770E+02	-9.59515049444E-01	-1.31447225863E+02	-1.45009710639E+01	-4.69147745530E+01
5.31200000000E+08	-1.43427908723E+01	-4.30359179719E+01	-9.62959259569E-01	-1.31709560667E+02	-9.64114931475E-01	-1.31641097001E+02	-1.45069109202E+01	-4.71046904017E+01
5.31800000000E+08	-1.43509723617E+01	-4.33009887925E+01	-9.67408829489E-01	-1.31886745545E+02	-9.67028427082E-01	-1.31816131837E+02	-1.45143786090E+01	-4.73366703881E+01
5.32400000000E+08	-1.43620903799E+01	-4.35232016550E+01	-9.72314109781E-01	-1.32053681689E+02	-9.69694240933E-01	-1.32002165704E+02	-1.45172842855E+01	-4.75401960615E+01
5.33000000000E+08	-1.43722540829E+01	-4.37725997167E+01	-9.77102101539E-01	-1.32229706545E+02	-9.75739356567E-01	-1.32160587913E+02	-1.45291016003E+01	-4.77661956528E+01
5.33600000000E+08	-1.43892656217E+01	-4.39808037793E+01	-9.80653473048E-01	-1.32406024746E+02	-9.78913742601E-01	-1.32335465701E+02	-1.45342586612E+01	-4.79712924037E+01
5.34200000000E+08	-1.44011237699E+01	-4.41889876398E+01	-9.84687246745E-01	-1.32580268777E+02	-9.84112728944E-01	-1.32522193463E+02	-1.45492363680E+01	-4.81995667186E+01
5.34800000000E+08	-1.44111760539E+01	-4.43769384897E+01	-9.87933997312E-01	-1.32748917385E+02	-9.86445572168E-01	-1.32691601512E+02	-1.45505043508E+01	-4.84107170905E+01
5.35400000000E+08	-1.44175119856E+01	-4.45863655174E+01	-9.92883255478E-01	-1.32938675979E+02	-9.92115305529E-01	-1.32889060914E+02	-1.45563502517E+01	-4.86498187102E+01
5.36000000000E+08	-1.44276271979E+01	-4.48153973507E+01	-9.98094707251E-01	-1.33109456795E+02	-9.94441802694E-01	-1.33059742136E+02	-1.45589055416E+01	-4.88655275452E+01
5.36600000000E+08	-1.44340215482E+01	-4.50173372440E+01	-1.00229532739E+00	-1.33286691112E+02	-1.00345899305E+00	-1.33228985409E+02	-1.45693265206E+01	-4.91169312621E+01
5.37200000000E+08	-1.44398171479E+01	-4.52292987511E+01	-1.00664182705E+00	-1.33485808719E+02	-1.00976632037E+00	-1.33425458072E+02	-1.45737840478E+01	-4.94025393819E+01
5.37800000000E+08	-1.44467163703E+01	-4.54819253902E+01	-1.01015172146E+00	-1.33668603300E+02	-1.01514073820E+00	-1.33607768689E+02	-1.45814804149E+01	-4.96660734123E+01
5.38400000000E+08	-1.44518392860E+01	-4.56934796346E+01	-1.01568361920E+00	-1.33858460157E+02	-1.02050985864E+00	-1.33764231986E+02	-1.45994321239E+01	-4.99728673312E+01
5.39000000000E+08	-1.44617392200E+01	-4.59842419165E+01	-1.02347761878E+00	-1.34018271955E+02	-1.02524526565E+00	-1.33950864826E+02	-1.46102695196E+01	-5.02099233066E+01
5.39600000000E+08	-1.44727281418E+01	-4.62335062912E+01	-1.03053597472E+00	-1.34197891186E+02	-1.03164488675E+00	-1.34127531819E+02	-1.46272358233E+01	-5.04866839973E+01
5.40200000000E+08	-1.44874796859E+01	-4.65030561243E+01	-1.03400808068E+00	-1.34358932665E+02	-1.03678171948E+00	-1.34296588162E+02	-1.46391624241E+01	-5.07542277433E+01
5.40800000000E+08	-1.45029699775E+01	-4.67652077839E+01	-1.04043200598E+00	-1.34556136546E+02	-1.04343096000E+00	-1.34459069856E+02	-1.46532151557E+01	-5.10492293305E+01
5.41400000000E+08	-1.45195251632E+01	-4.70213269654E+01	-1.04621342522E+00	-1.34713451858E+02	-1.04875517701E+00	-1.34637780202E+02	-1.46734250663E+01	-5.13460790220E+01
5.42000000000E+08	-1.45416565341E+01	-4.72539676998E+01	-1.05154417574E+00	-1.34893401527E+02	-1.05507659399E+00	-1.34789852250E+02	-1.46966887466E+01	-5.16807518779E+01
5.42600000000E+08	-1.45615765791E+01	-4.74615646356E+01	-1.05924646777E+00	-1.35065293141E+02	-1.05896393627E+00	-1.34951526027E+02	-1.47266001590E+01	-5.19913770848E+01
5.43200000000E+08	-1.45778490618E+01	-4.76678969797E+01	-1.06319355072E+00	-1.35231786296E+02	-1.06228020288E+00	-1.35089599891E+02	-1.47691878878E+01	-5.22195895465E+01
5.43800000000E+08	-1.45898007738E+01	-4.78665625914E+01	-1.06844291054E+00	-1.35376585984E+02	-1.06281162983E+00	-1.35238907409E+02	-1.48095599170E+01	-5.23851764534E+01
5.44400000000E+08	-1.46047036583E+01	-4.81010923271E+01	-1.07033473683E+00	-1.35572337191E+02	-1.06513824288E+00	-1.35428957001E+02	-1.48336928344E+01	-5.24582286318E+01
5.45000000000E+08	-1.46176558002E+01	-4.83094648579E+01	-1.07370038000E+00	-1.35752621139E+02	-1.06462925824E+00	-1.35595819265E+02	-1.48468903623E+01	-5.25794707573E+01
5.45600000000E+08	-1.46288559987E+01	-4.85448269698E+01	-1.07766174365E+00	-1.35923835499E+02	-1.06981467517E+00	-1.35793173758E+02	-1.48601000181E+01	-5.27345845540E+01
5.46200000000E+08	-1.46429781641E+01	-4.88225586920E+01	-1.08606204522E+00	-1.36105824508E+02	-1.07228145412E+00	-1.35976486260E+02	-1.48692326230E+01	-5.29595497999E+01
5.46800000000E+08	-1.46588815048E+01	-4.90901069921E+01	-1.09154872069E+00	-1.36274260548E+02	-1.07602980081E+00	-1.36166483135E+02	-1.48886798123E+01	-5.31806267149E+01
5.47400000000E+08	-1.46794125408E+01	-4.93931846904E+01	-1.09807604673E+00	-1.36439200482E+02	-1.08157751734E+00	-1.36348050542E+02	-1.49086859957E+01	-5.34138586893E+01
5.48000000000E+08	-1.46992522924E+01	-4.96802121273E+01	-1.10534949616E+00	-1.36611541665E+02	-1.08729825405E+00	-1.36533604563E+02	-1.49303865306E+01	-5.36325655911E+01
5.48600000000E+08	-1.47291649283E+01	-4.99804525679E+01	-1.11170293707E+00	-1.36776852856E+02	-1.09110039154E+00	-1.36705138909E+02	-1.49535136393E+01	-5.38596557376E+01
5.49200000000E+08	-1.47593987715E+01	-5.02435749503E+01	-1.11611276825E+00	-1.36931939145E+02	-1.09815871751E+00	-1.36895889634E+02	-1.49737895046E+01	-5.40278442586E+01
5.49800000000E+08	-1.47974373305E+01	-5.05215771132E+01	-1.12215343076E+00	-1.37087418477E+02	-1.10243057597E+00	-1.37055094744E+02	-1.49926405240E+01	-5.42344426470E+01
5.50400000000E+08	-1.48310035280E+01	-5.07376045586E+01	-1.12419226576E+00	-1.37230530294E+02	-1.10663312786E+00	-1.37239929579E+02	-1.50147901715E+01	-5.44474266253E+01
5.51000000000E+08	-1.48712925643E+01	-5.09551537390E+01	-1.12709525739E+00	-1.37402561995E+02	-1.11109272605E+00	-1.37399316968E+02	-1.50338020502E+01	-5.46362438197E+01
5.51600000000E+08	-1.49069536661E+01	-5.11258142115E+01	-1.12967018505E+00	-1.37552476432E+02	-1.11590658506E+00	-1.37575135007E+02	-1.50604367837E+01	-5.48480094279E+01
5.52200000000E+08	-1.49474229121E+01	-5.12828476567E+01	-1.13075071582E+00	-1.37734355233E+02	-1.11738431444E+00	-1.37742522955E+02	-1.50850839451E+01	-5.50480672064E+01
5.52800000000E+08	-1.49858929039E+01	-5.13524780963E+01	-1.13004451933E+00	-1.37884471233E+02	-1.12019097728E+00	-1.37922193476E+02	-1.51088006518E+01	-5.51861943348E+01
5.53400000000E+08	-1.50182789811E+01	-5.13883939265E+01	-1.13043779205E+00	-1.38057675335E+02	-1.12152189453E+00	-1.38093452812E+02	-1.51354120211E+01	-5.53412585137E+01
5.54000000000E+08	-1.50412083201E+01	-5.14291960131E+01	-1.13003822565E+00	-1.38244651924E+02	-1.12158870969E+00	-1.38281299808E+02	-1.51564257097E+01	-5.54318778358E+01
5.54600000000E+08	-1.50490579364E+01	-5.14639230306E+01	-1.12825541401E+00	-1.38453279357E+02	-1.12379209646E+00	-1.38494532899E+02	-1.51739328813E+01	-5.55383820908E+01
5.55200000000E+08	-1.50525926622E+01	-5.15153076082E+01	-1.12910915269E+00	-1.38641469465E+02	-1.12780584509E+00	-1.38690115525E+02	-1.51775167001E+01	-5.57212169138E+01
5.55800000000E+08	-1.50450262022E+01	-5.16667408787E+01	-1.13170781327E+00	-1.38844369885E+02	-1.13161202281E+00	-1.38889793039E+02	-1.51803283432E+01	-5.58931069953E+01
5.56400000000E+08	-1.50471529642E+01	-5.18451170924E+01	-1.13580536583E+00	-1.39062906184E+02	-1.13744429024E+00	-1.39086709273E+02	-1.51901346648E+01	-5.61234838033E+01
5.57000000000E+08	-1.50532778956E+01	-5.20502205298E+01	-1.14141991275E+00	-1.39256353625E+02	-1.14535754835E+00	-1.39288948945E+02	-1.51987193547E+01	-5.63785281433E+01
5.57600000000E+08	-1.50562755602E+01	-5.23040160402E+01	-1.14730320529E+00	-1.39452361694E+02	-1.15148280689E+00	-1.39470793778E+02	-1.52121711601E+01	-5.66367534449E+01
5.58200000000E+08	-1.50661727137E+01	-5.25595259404E+01	-1.15231294555E+00	-1.39668572793E+02	-1.16024153547E+00	-1.39678562777E+02	-1.52332043329E+01	-5.68740127892E+01
5.58800000000E+08	-1.50792782917E+01	-5.28179645244E+01	-1.15956032826E+00	-1.39864605457E+02	-1.16524772594E+00	-1.39852813815E+02	-1.52519536626E+01	-5.71514493102E+01
5.59400000000E+08	-1.50962623708E+01	-5.30680254005E+01	-1.16489892470E+00	-1.40050166547E+02	-1.17191514901E+00	-1.40036943201E+02	-1.52745449830E+01	-5.73696210330E+01
5.60000000000E+08	-1.51177095477E+01	-5.33496903602E+01	-1.17100350315E+00	-1.40231255595E+02	-1.17730153105E+00	-1.40238839369E+02	-1.52982693119E+01	-5.76287933806E+01
5.60600000000E+08	-1.51389212204E+01	-5.35712113218E+01	-1.17689334619E+00	-1.40432613103E+02	-1.18266583654E+00	-1.40399050139E+02	-1.53188022010E+01	-5.78235742509E+01
5.61200000000E+08	-1.51567754103E+01	-5.38136622341E+01	-1.18285966645E+00	-1.40619041781E+02	-1.18759951838E+00	-1.40574131323E+02	-1.53427052032E+01	-5.80234144745E+01
5.61800000000E+08	-1.51815905644E+01	-5.40196712529E+01	-1.18740956601E+00	-1.40783850541E+02	-1.19209062378E+00	-1.40750682977E+02	-1.53645973744E+01	-5.82012450295E+01
5.62400000000E+08	-1.52052681552E+01	-5.41829212178E+01	-1.19247508197E+00	-1.40963410400E+02	-1.19708486323E+00	-1.40945211549E+02	-1.53757891510E+01	-5.84126780392E+01
5.63000000000E+08	-1.52292285038E+01	-5.43914152119E+01	-1.19592521364E+00	-1.41158460690E+02	-1.19993155812E+00	-1.41129576801E+02	-1.53919851121E+01	-5.86075461103E+01
5.63600000000E+08	-1.52448494928E+01	-5.45763922144E+01	-1.20051867726E+00	-1.41364064305E+02	-1.20597232648E+00	-1.41320460759E+02	-1.53962036133E+01	-5.88467044138E+01
5.64200000000E+08	-1.52584568126E+01	-5.47363236246E+01	-1.20383825825E+00	-1.41546272241E+02	-1.21223905188E+00	-1.41508187804E+02	-1.54040024046E+01	-5.91006304292E+01
5.64800000000E+08	-1.52664935487E+01	-5.49100213323E+01	-1.21063067194E+00	-1.41753640958E+02	-1.21940785186E+00	-1.41689036052E+02	-1.54240539495E+01	-5.94463498494E+01
5.65400000000E+08	-1.52801156505E+01	-5.51705415304E+01	-1.21639041233E+00	-1.41943495153E+02	-1.22802239056E+00	-1.41885889414E+02	-1.54539149170E+01	-5.98068367789E+01
5.66000000000E+08	-1.52961324444E+01	-5.54443560915E+01	-1.22381796448E+00	-1.42130156168E+02	-1.23379804828E+00	-1.42061203424E+02	-1.54991586034E+01	-6.01349430377E+01
5.66600000000E+08	-1.53196127885E+01	-5.57075048441E+01	-1.23105598804E+00	-1.42304776838E+02	-1.23848665764E+00	-1.42209843110E+02	-1.55402180836E+01	-6.03939488853E+01
5.67200000000E+08	-1.53467397943E+01	-5.59512333173E+01	-1.23553242796E+00	-1.42489481536E+02	-1.23922009841E+00	-1.42390957314E+02	-1.55901109502E+01	-6.04923868065E+01
5.67800000000E+08	-1.53798161511E+01	-5.61559927433E+01	-1.23946303532E+00	-1.42678673408E+02	-1.24534234146E+00	-1.42561999709E+02	-1.56254272384E+01	-6.05517403966E+01
5.68400000000E+08	-1.54109093185E+01	-5.62943643608E+01	-1.24429270145E+00	-1.42864378263E+02	-1.24356057641E+00	-1.42753796687E+02	-1.56470327262E+01	-6.06105940509E+01
