# Hz S DB R 50
! CMT, S5065, 24347010, 24.3.4/3
! Date: 10/15/2024 11:18:30 AM
! Data: Format (Calibration Info)
! Freq	S11:dB/Ang(F2)	S21:dB/Ang(F2)	S12:dB/Ang(F2)	S22:dB/Ang(F2)
5.00000000000E+08	-1.41417485456E+01	-3.30187567816E+01	-7.82944307949E-01	-1.22699543249E+02	-7.81932335536E-01	-1.22653611163E+02	-1.42123659729E+01	-3.59205236805E+01
5.00600000000E+08	-1.41520800669E+01	-3.32366118620E+01	-7.85754681927E-01	-1.22862514002E+02	-7.84792544163E-01	-1.22828720954E+02	-1.42212596121E+01	-3.61602983224E+01
5.01200000000E+08	-1.41522364959E+01	-3.34240611820E+01	-7.92534724972E-01	-1.23038246780E+02	-7.90402724165E-01	-1.22988706862E+02	-1.42273683111E+01	-3.64189526781E+01
5.01800000000E+08	-1.41532652382E+01	-3.35934199312E+01	-7.94244566114E-01	-1.23197068934E+02	-7.95150729086E-01	-1.23148292373E+02	-1.42396159878E+01	-3.66768238449E+01
5.02400000000E+08	-1.41504657292E+01	-3.37902731046E+01	-7.97854309059E-01	-1.23374850908E+02	-7.97474587060E-01	-1.23319839984E+02	-1.42483969444E+01	-3.68833256295E+01
5.03000000000E+08	-1.41499550687E+01	-3.40107997780E+01	-8.01480103101E-01	-1.23552343457E+02	-7.98887062823E-01	-1.23487106860E+02	-1.42515357641E+01	-3.70955445802E+01
5.03600000000E+08	-1.41504738813E+01	-3.42405765447E+01	-8.06682638672E-01	-1.23710616002E+02	-8.05267935460E-01	-1.23665110943E+02	-1.42640139804E+01	-3.73219038132E+01
5.04200000000E+08	-1.41538346107E+01	-3.45305849046E+01	-8.11878832355E-01	-1.23887622666E+02	-8.09263636182E-01	-1.23822690037E+02	-1.42775023070E+01	-3.75597585408E+01
5.04800000000E+08	-1.41634680719E+01	-3.47969947984E+01	-8.17342179205E-01	-1.24045231606E+02	-8.14901932282E-01	-1.23983197878E+02	-1.42907070922E+01	-3.78048232138E+01
5.05400000000E+08	-1.41814496157E+01	-3.50698904057E+01	-8.20882827794E-01	-1.24187492346E+02	-8.20059082479E-01	-1.24116795435E+02	-1.43156885947E+01	-3.79922760518E+01
5.06000000000E+08	-1.42004170031E+01	-3.52610021921E+01	-8.23181176841E-01	-1.24333217036E+02	-8.19316081606E-01	-1.24277220615E+02	-1.43360971363E+01	-3.81228638447E+01
5.06600000000E+08	-1.42256989594E+01	-3.54097555968E+01	-8.22659426178E-01	-1.24491862960E+02	-8.21736368772E-01	-1.24438664793E+02	-1.43472270969E+01	-3.82366988018E+01
5.07200000000E+08	-1.42426277459E+01	-3.55096535958E+01	-8.23558933888E-01	-1.24631865973E+02	-8.21309040125E-01	-1.24599138897E+02	-1.43530844590E+01	-3.83151315477E+01
5.07800000000E+08	-1.42508539307E+01	-3.56043317577E+01	-8.24933686356E-01	-1.24794544300E+02	-8.21230622396E-01	-1.24761232279E+02	-1.43559294649E+01	-3.83999948918E+01
5.08400000000E+08	-1.42613474390E+01	-3.56922186584E+01	-8.25817355915E-01	-1.25008329081E+02	-8.20105917591E-01	-1.24945510709E+02	-1.43505373905E+01	-3.85417381761E+01
5.09000000000E+08	-1.42631671322E+01	-3.57805697751E+01	-8.26702244318E-01	-1.25147001341E+02	-8.24005382237E-01	-1.25115178361E+02	-1.43485403307E+01	-3.87128801080E+01
5.09600000000E+08	-1.42678201297E+01	-3.59273670668E+01	-8.27534502225E-01	-1.25324986929E+02	-8.24277636969E-01	-1.25290232607E+02	-1.43461054164E+01	-3.88752938465E+01
5.10200000000E+08	-1.42670033350E+01	-3.60253073700E+01	-8.28914265046E-01	-1.25516663264E+02	-8.26293164495E-01	-1.25466882446E+02	-1.43481104543E+01	-3.90599457307E+01
5.10800000000E+08	-1.42667085285E+01	-3.61469333357E+01	-8.28429035043E-01	-1.25685389879E+02	-8.27186622168E-01	-1.25658415436E+02	-1.43416008333E+01	-3.92551205337E+01
5.11400000000E+08	-1.42593707852E+01	-3.62364935775E+01	-8.30800203745E-01	-1.25878139484E+02	-8.29746154828E-01	-1.25838543201E+02	-1.43438458068E+01	-3.93965687479E+01
5.12000000000E+08	-1.42552408342E+01	-3.63763872140E+01	-8.33507918598E-01	-1.26064843341E+02	-8.31100455444E-01	-1.26014064091E+02	-1.43391354780E+01	-3.95540824601E+01
5.12600000000E+08	-1.42436665679E+01	-3.65613719015E+01	-8.35278154912E-01	-1.26227829713E+02	-8.31719763521E-01	-1.26202839914E+02	-1.43350896692E+01	-3.97506468293E+01
5.13200000000E+08	-1.42381205963E+01	-3.67365940952E+01	-8.37668356067E-01	-1.26430172985E+02	-8.33875302999E-01	-1.26373673504E+02	-1.43292054829E+01	-3.99593412496E+01
5.13800000000E+08	-1.42264092078E+01	-3.69068083596E+01	-8.40861863178E-01	-1.26622077987E+02	-8.38977101360E-01	-1.26560328716E+02	-1.43285884014E+01	-4.01590754617E+01
5.14400000000E+08	-1.42217863319E+01	-3.71277265417E+01	-8.44092702554E-01	-1.26820475919E+02	-8.42479893287E-01	-1.26777119234E+02	-1.43226833422E+01	-4.03499521894E+01
5.15000000000E+08	-1.42175439753E+01	-3.73390409218E+01	-8.46745096540E-01	-1.26982003264E+02	-8.45770987855E-01	-1.26938941186E+02	-1.43212780624E+01	-4.05778615699E+01
5.15600000000E+08	-1.42152592735E+01	-3.75589257018E+01	-8.53896120022E-01	-1.27182650956E+02	-8.48591581422E-01	-1.27121854129E+02	-1.43155089349E+01	-4.07829582781E+01
5.16200000000E+08	-1.42149840834E+01	-3.77958075842E+01	-8.55639587976E-01	-1.27366105362E+02	-8.53409641672E-01	-1.27324153313E+02	-1.43126806674E+01	-4.10242927070E+01
5.16800000000E+08	-1.42166444952E+01	-3.80172939420E+01	-8.61999281543E-01	-1.27550359676E+02	-8.60042260038E-01	-1.27503409897E+02	-1.43029317822E+01	-4.12674494348E+01
5.17400000000E+08	-1.42140758271E+01	-3.82277029423E+01	-8.65748385580E-01	-1.27718836895E+02	-8.64684147664E-01	-1.27686238062E+02	-1.42959518496E+01	-4.15268091344E+01
5.18000000000E+08	-1.42160573771E+01	-3.84815125284E+01	-8.69948214148E-01	-1.27904333043E+02	-8.69208808534E-01	-1.27866651563E+02	-1.42940116855E+01	-4.18126628643E+01
5.18600000000E+08	-1.42199676466E+01	-3.86778089742E+01	-8.76609842443E-01	-1.28086887422E+02	-8.74866152988E-01	-1.28032137475E+02	-1.42909772663E+01	-4.20444013061E+01
5.19200000000E+08	-1.42163438049E+01	-3.89284977961E+01	-8.84080767244E-01	-1.28275957740E+02	-8.77934984298E-01	-1.28243935237E+02	-1.42888247007E+01	-4.23892262668E+01
5.19800000000E+08	-1.42151216336E+01	-3.91666758077E+01	-8.88449154826E-01	-1.28450346688E+02	-8.86592249857E-01	-1.28399453700E+02	-1.42889343986E+01	-4.26743034243E+01
5.20400000000E+08	-1.42163132451E+01	-3.94267022543E+01	-8.96736557849E-01	-1.28622363938E+02	-8.93968501490E-01	-1.28590079391E+02	-1.42922055367E+01	-4.30042900462E+01
5.21000000000E+08	-1.42202647822E+01	-3.97272169754E+01	-9.02067989660E-01	-1.28785533257E+02	-8.98927793798E-01	-1.28737175090E+02	-1.43030073440E+01	-4.33588956785E+01
5.21600000000E+08	-1.42314294357E+01	-3.99983331092E+01	-9.07350838193E-01	-1.28947730421E+02	-9.05306564185E-01	-1.28909832911E+02	-1.43190486601E+01	-4.36705560369E+01
5.22200000000E+08	-1.42512808571E+01	-4.02794777168E+01	-9.13640222371E-01	-1.29096636368E+02	-9.11362747963E-01	-1.29060896139E+02	-1.43376985039E+01	-4.39545732676E+01
5.22800000000E+08	-1.42712572387E+01	-4.05013569854E+01	-9.19407007272E-01	-1.29254787136E+02	-9.16833487276E-01	-1.29207580178E+02	-1.43633464122E+01	-4.41845793638E+01
5.23400000000E+08	-1.42874826941E+01	-4.07064236455E+01	-9.19040221847E-01	-1.29414398965E+02	-9.21135880013E-01	-1.29372126108E+02	-1.43805313903E+01	-4.44048358680E+01
5.24000000000E+08	-1.43037604818E+01	-4.08531311463E+01	-9.23184529674E-01	-1.29574251104E+02	-9.22226025507E-01	-1.29514977564E+02	-1.43946565006E+01	-4.45653961110E+01
5.24600000000E+08	-1.43184030836E+01	-4.10213910346E+01	-9.24579189473E-01	-1.29738088971E+02	-9.23709226394E-01	-1.29671001072E+02	-1.44069325844E+01	-4.47720454622E+01
5.25200000000E+08	-1.43293303541E+01	-4.11481714645E+01	-9.27102591520E-01	-1.29909010800E+02	-9.22577935785E-01	-1.29853655571E+02	-1.44187067274E+01	-4.49519829356E+01
5.25800000000E+08	-1.43357479644E+01	-4.12834637222E+01	-9.28277450190E-01	-1.30075548093E+02	-9.28657884632E-01	-1.30023184382E+02	-1.44291746688E+01	-4.51520148031E+01
5.26400000000E+08	-1.43398943264E+01	-4.14260720841E+01	-9.30666660509E-01	-1.30251320193E+02	-9.29175010413E-01	-1.30203380984E+02	-1.44344440760E+01	-4.53600016848E+01
5.27000000000E+08	-1.43411494382E+01	-4.16302831273E+01	-9.33838741300E-01	-1.30445448202E+02	-9.32069658196E-01	-1.30390032445E+02	-1.44385733097E+01	-4.55537361019E+01
5.27600000000E+08	-1.43433385446E+01	-4.17824790683E+01	-9.38512083597E-01	-1.30622645737E+02	-9.34961692069E-01	-1.30562892833E+02	-1.44456630602E+01	-4.57597870165E+01
5.28200000000E+08	-1.43438901818E+01	-4.20161349952E+01	-9.41487241280E-01	-1.30802573861E+02	-9.39819947282E-01	-1.30747373461E+02	-1.44538522929E+01	-4.59949841735E+01
5.28800000000E+08	-1.43491160753E+01	-4.22396395378E+01	-9.45813698275E-01	-1.30980288380E+02	-9.43935047441E-01	-1.30922405902E+02	-1.44597339854E+01	-4.61748136981E+01
5.29400000000E+08	-1.43492885389E+01	-4.24710869354E+01	-9.52467917791E-01	-1.31154945208E+02	-9.48729217743E-01	-1.31096024794E+02	-1.44681869360E+01	-4.64677887143E+01
5.30000000000E+08	-1.43653806694E+01	-4.26964988561E+01	-9.57192884071E-01	-1.31331873002E+02	-9.51426422454E-01	-1.31289339743E+02	-1.44840363406E+01	-4.66932153937E+01
5.30600000000E+08	-1.43798380578E+01	-4.28677559842E+01	-9.60219899061E-01	-1.31499084499E+02	-9.57653625988E-01	-1.31464103257E+02	-1.45000061571E+01	-4.68983619089E+01
5.31200000000E+08	-1.43928906631E+01	-4.30335891195E+01	-9.61963206119E-01	-1.31657992494E+02	-9.59616636176E-01	-1.31631639626E+02	-1.45098411805E+01	-4.70589514826E+01
5.31800000000E+08	-1.43991050420E+01	-4.32022656002E+01	-9.64949219916E-01	-1.31839125663E+02	-9.63862172000E-01	-1.31803725973E+02	-1.45188066458E+01	-4.72788214153E+01
5.32400000000E+08	-1.44047453021E+01	-4.33732609402E+01	-9.67124859531E-01	-1.32022482494E+02	-9.64087594609E-01	-1.31976919953E+02	-1.45193760403E+01	-4.74257847682E+01
5.33000000000E+08	-1.44061782633E+01	-4.35554656011E+01	-9.70050606242E-01	-1.32192976162E+02	-9.68797653740E-01	-1.32159557086E+02	-1.45237740098E+01	-4.76720548570E+01
5.33600000000E+08	-1.44176471170E+01	-4.37437905441E+01	-9.74271361183E-01	-1.32382140083E+02	-9.74037138041E-01	-1.32330526895E+02	-1.45350235048E+01	-4.78975642543E+01
5.34200000000E+08	-1.44189280938E+01	-4.39427315166E+01	-9.77282274422E-01	-1.32556703590E+02	-9.78347673764E-01	-1.32517746663E+02	-1.45481788631E+01	-4.81235094570E+01
5.34800000000E+08	-1.44239827539E+01	-4.41123094634E+01	-9.78265815918E-01	-1.32740365120E+02	-9.80333073418E-01	-1.32696880504E+02	-1.45534698234E+01	-4.83223961379E+01
5.35400000000E+08	-1.44235975563E+01	-4.43004666438E+01	-9.84152376436E-01	-1.32943759504E+02	-9.84816328956E-01	-1.32901699491E+02	-1.45620929590E+01	-4.85367828198E+01
5.36000000000E+08	-1.44274622743E+01	-4.45125155065E+01	-9.88564940137E-01	-1.33114907446E+02	-9.87198486915E-01	-1.33066432923E+02	-1.45636276885E+01	-4.86933342031E+01
5.36600000000E+08	-1.44249843461E+01	-4.47238389990E+01	-9.93728094611E-01	-1.33316661802E+02	-9.92695229812E-01	-1.33260181119E+02	-1.45651841197E+01	-4.89217628610E+01
5.37200000000E+08	-1.44237379017E+01	-4.49629314681E+01	-9.99660920553E-01	-1.33521064118E+02	-9.97703217066E-01	-1.33463025907E+02	-1.45640339025E+01	-4.91934211235E+01
5.37800000000E+08	-1.44246379955E+01	-4.52145608833E+01	-1.00241416062E+00	-1.33693779623E+02	-1.00280612337E+00	-1.33651666363E+02	-1.45641826748E+01	-4.94488209429E+01
5.38400000000E+08	-1.44248579579E+01	-4.54685350115E+01	-1.01010737328E+00	-1.33891307240E+02	-1.00682989175E+00	-1.33825756800E+02	-1.45765566202E+01	-4.97676687603E+01
5.39000000000E+08	-1.44286645471E+01	-4.58123099084E+01	-1.01589720603E+00	-1.34076869981E+02	-1.01711850260E+00	-1.34008294112E+02	-1.45855976266E+01	-5.00503292404E+01
5.39600000000E+08	-1.44386993021E+01	-4.60993854646E+01	-1.02601834148E+00	-1.34242302790E+02	-1.02144385557E+00	-1.34202850969E+02	-1.46012808557E+01	-5.03465791722E+01
5.40200000000E+08	-1.44510299692E+01	-4.64188106846E+01	-1.03212268581E+00	-1.34403390982E+02	-1.02965308900E+00	-1.34364606835E+02	-1.46162552927E+01	-5.06190033457E+01
5.40800000000E+08	-1.44693480168E+01	-4.67042791040E+01	-1.03804509123E+00	-1.34596192981E+02	-1.03687466035E+00	-1.34552513419E+02	-1.46320101298E+01	-5.08829993244E+01
5.41400000000E+08	-1.44874278359E+01	-4.70062013222E+01	-1.04451228660E+00	-1.34747852566E+02	-1.04089366634E+00	-1.34698291713E+02	-1.46471939823E+01	-5.11000435531E+01
5.42000000000E+08	-1.45127462554E+01	-4.72557539815E+01	-1.05070535292E+00	-1.34918614917E+02	-1.04627162887E+00	-1.34881957111E+02	-1.46583616257E+01	-5.13879973200E+01
5.42600000000E+08	-1.45343893985E+01	-4.74700340330E+01	-1.05683647117E+00	-1.35105409617E+02	-1.04991482365E+00	-1.35040654932E+02	-1.46737668005E+01	-5.16717719127E+01
5.43200000000E+08	-1.45533375214E+01	-4.76826102754E+01	-1.06069792803E+00	-1.35264631146E+02	-1.05740729639E+00	-1.35219293829E+02	-1.46942203082E+01	-5.19438428411E+01
5.43800000000E+08	-1.45645643244E+01	-4.79040989202E+01	-1.06603452975E+00	-1.35423444175E+02	-1.06075868380E+00	-1.35408724141E+02	-1.47132032373E+01	-5.22368297464E+01
5.44400000000E+08	-1.45808724854E+01	-4.81493493420E+01	-1.07161793922E+00	-1.35622579272E+02	-1.07030728172E+00	-1.35568913995E+02	-1.47293089199E+01	-5.24894512932E+01
5.45000000000E+08	-1.45965761366E+01	-4.83749756542E+01	-1.07503392595E+00	-1.35796158473E+02	-1.07413661042E+00	-1.35756301432E+02	-1.47500349442E+01	-5.27615814935E+01
5.45600000000E+08	-1.46068347931E+01	-4.86574975685E+01	-1.08050418566E+00	-1.35987368860E+02	-1.07824830142E+00	-1.35931382737E+02	-1.47709813802E+01	-5.30083044227E+01
5.46200000000E+08	-1.46225116399E+01	-4.89358760335E+01	-1.08808985530E+00	-1.36147154798E+02	-1.08718272882E+00	-1.36089971031E+02	-1.47924331383E+01	-5.32771584055E+01
5.46800000000E+08	-1.46429537884E+01	-4.92313600873E+01	-1.09432781450E+00	-1.36319792903E+02	-1.09206054648E+00	-1.36265070728E+02	-1.48144698968E+01	-5.35503619609E+01
5.47400000000E+08	-1.46657882038E+01	-4.95826563019E+01	-1.10216928176E+00	-1.36483743477E+02	-1.09740959627E+00	-1.36436238739E+02	-1.48375211440E+01	-5.38547072150E+01
5.48000000000E+08	-1.46969594877E+01	-4.98984672879E+01	-1.11113356751E+00	-1.36625189622E+02	-1.10612185738E+00	-1.36601678965E+02	-1.48689584814E+01	-5.41492985434E+01
5.48600000000E+08	-1.47395871085E+01	-5.02077960768E+01	-1.11463838345E+00	-1.36784481649E+02	-1.11238746673E+00	-1.36749756808E+02	-1.49044626338E+01	-5.44626612988E+01
5.49200000000E+08	-1.47866150011E+01	-5.03943244512E+01	-1.11838364784E+00	-1.36911897056E+02	-1.11593303266E+00	-1.36905859462E+02	-1.49431808762E+01	-5.46755971984E+01
5.49800000000E+08	-1.48285594792E+01	-5.05776178136E+01	-1.12089740354E+00	-1.37076023065E+02	-1.12112431254E+00	-1.37049607567E+02	-1.49852919414E+01	-5.48943797488E+01
5.50400000000E+08	-1.48648066283E+01	-5.06844811997E+01	-1.12162380656E+00	-1.37226749866E+02	-1.12237982633E+00	-1.37191316566E+02	-1.50242997236E+01	-5.50183813572E+01
5.51000000000E+08	-1.48928573750E+01	-5.08072338937E+01	-1.12233630980E+00	-1.37410297996E+02	-1.12342882854E+00	-1.37384256606E+02	-1.50526547201E+01	-5.51462318416E+01
5.51600000000E+08	-1.49156015279E+01	-5.09341767166E+01	-1.12322147378E+00	-1.37571660902E+02	-1.12548693487E+00	-1.37540213444E+02	-1.50804857192E+01	-5.52833759999E+01
5.52200000000E+08	-1.49391351132E+01	-5.10910235221E+01	-1.12639241227E+00	-1.37771234607E+02	-1.12695408021E+00	-1.37702161036E+02	-1.51045848599E+01	-5.54355748992E+01
5.52800000000E+08	-1.49673014940E+01	-5.12026592915E+01	-1.12838556420E+00	-1.37955189316E+02	-1.13008686960E+00	-1.37895677643E+02	-1.51305487132E+01	-5.55525122840E+01
5.53400000000E+08	-1.49918853450E+01	-5.13256224810E+01	-1.13266308477E+00	-1.38125918009E+02	-1.13368469328E+00	-1.38060339366E+02	-1.51592700818E+01	-5.57035881542E+01
5.54000000000E+08	-1.50114584607E+01	-5.14544787832E+01	-1.13309301143E+00	-1.38294368252E+02	-1.13132395283E+00	-1.38235419409E+02	-1.51835421292E+01	-5.57985154428E+01
5.54600000000E+08	-1.50273480500E+01	-5.15603442564E+01	-1.13484923546E+00	-1.38503500298E+02	-1.13334283940E+00	-1.38432578749E+02	-1.52026218508E+01	-5.59241248874E+01
5.55200000000E+08	-1.50411964051E+01	-5.16804945443E+01	-1.13738489427E+00	-1.38676949048E+02	-1.13876636033E+00	-1.38619901430E+02	-1.52228592463E+01	-5.60539364688E+01
5.55800000000E+08	-1.50469422047E+01	-5.18195329119E+01	-1.14160884057E+00	-1.38868372439E+02	-1.13880604935E+00	-1.38823161827E+02	-1.52312856687E+01	-5.61750645525E+01
5.56400000000E+08	-1.50548485571E+01	-5.19868145253E+01	-1.14264321117E+00	-1.39069277345E+02	-1.14180331097E+00	-1.39009835249E+02	-1.52435883474E+01	-5.63248838901E+01
5.57000000000E+08	-1.50682730562E+01	-5.21888362846E+01	-1.14752447030E+00	-1.39267908352E+02	-1.14573580567E+00	-1.39207186758E+02	-1.52505421801E+01	-5.65001768830E+01
5.57600000000E+08	-1.50778065767E+01	-5.24083226350E+01	-1.15101053968E+00	-1.39455104124E+02	-1.15200644740E+00	-1.39393629794E+02	-1.52621561651E+01	-5.67114712677E+01
5.58200000000E+08	-1.50925882560E+01	-5.25859915793E+01	-1.15753252509E+00	-1.39650770262E+02	-1.15664722459E+00	-1.39602748492E+02	-1.52735285657E+01	-5.68632730557E+01
5.58800000000E+08	-1.51063022809E+01	-5.28121297945E+01	-1.16205841667E+00	-1.39851210884E+02	-1.15920634933E+00	-1.39802412593E+02	-1.52792558240E+01	-5.71299330034E+01
5.59400000000E+08	-1.51242491274E+01	-5.30011463680E+01	-1.16725531860E+00	-1.40029555256E+02	-1.16534446575E+00	-1.39991004718E+02	-1.52941138241E+01	-5.73771907504E+01
5.60000000000E+08	-1.51463695638E+01	-5.32753461732E+01	-1.17275927415E+00	-1.40220709240E+02	-1.17340486122E+00	-1.40196798244E+02	-1.53146616164E+01	-5.76708911905E+01
5.60600000000E+08	-1.51693913533E+01	-5.34266804257E+01	-1.17868006177E+00	-1.40402234795E+02	-1.17781128755E+00	-1.40353998016E+02	-1.53399880031E+01	-5.79366499375E+01
5.61200000000E+08	-1.51884749066E+01	-5.35867784457E+01	-1.18331597559E+00	-1.40588803140E+02	-1.18253276431E+00	-1.40529565901E+02	-1.53726301460E+01	-5.81208175003E+01
5.61800000000E+08	-1.52050061789E+01	-5.37213349713E+01	-1.18569236473E+00	-1.40768767676E+02	-1.18593827792E+00	-1.40699817430E+02	-1.54044987470E+01	-5.82805245061E+01
5.62400000000E+08	-1.52149993596E+01	-5.38379019207E+01	-1.18882116361E+00	-1.40959887503E+02	-1.18846782615E+00	-1.40903207822E+02	-1.54211791226E+01	-5.84309950345E+01
5.63000000000E+08	-1.52164735188E+01	-5.40451077395E+01	-1.19127473233E+00	-1.41162544805E+02	-1.18973564938E+00	-1.41098504024E+02	-1.54387884697E+01	-5.85573419140E+01
5.63600000000E+08	-1.52153733770E+01	-5.42460754788E+01	-1.19848419555E+00	-1.41370602775E+02	-1.19361819069E+00	-1.41290640764E+02	-1.54480735110E+01	-5.87030229885E+01
5.64200000000E+08	-1.52174456942E+01	-5.45160091525E+01	-1.20169845778E+00	-1.41574739525E+02	-1.20020437947E+00	-1.41513908257E+02	-1.54517199478E+01	-5.88858424640E+01
5.64800000000E+08	-1.52216878041E+01	-5.48001440092E+01	-1.20977008189E+00	-1.41782675715E+02	-1.20601527091E+00	-1.41695598947E+02	-1.54603623505E+01	-5.90919443420E+01
5.65400000000E+08	-1.52373574194E+01	-5.51617273092E+01	-1.21787039957E+00	-1.41982376392E+02	-1.21214027456E+00	-1.41929626044E+02	-1.54703891962E+01	-5.94001055003E+01
5.66000000000E+08	-1.52548585040E+01	-5.54948840883E+01	-1.22463281655E+00	-1.42167484935E+02	-1.22138457053E+00	-1.42133458050E+02	-1.54878626446E+01	-5.97072055719E+01
5.66600000000E+08	-1.52883517338E+01	-5.58224330629E+01	-1.23536698101E+00	-1.42347332796E+02	-1.22826450072E+00	-1.42293228736E+02	-1.55083374478E+01	-6.00123985980E+01
5.67200000000E+08	-1.53248448817E+01	-5.61024744866E+01	-1.24026823526E+00	-1.42509911132E+02	-1.23366630058E+00	-1.42479994527E+02	-1.55416392186E+01	-6.02551181791E+01
5.67800000000E+08	-1.53694077139E+01	-5.63303245250E+01	-1.24366329721E+00	-1.42685173432E+02	-1.24516422168E+00	-1.42653484500E+02	-1.55838408464E+01	-6.04913983986E+01
5.68400000000E+08	-1.54129887423E+01	-5.64258978597E+01	-1.24786325953E+00	-1.42844023954E+02	-1.24374768566E+00	-1.42815407750E+02	-1.56146114262E+01	-6.06238985872E+01
