# Hz S DB R 50
! CMT, S5065, 24347010, 24.3.4/3
! Date: 10/15/2024 12:24:32 PM
! Data: Format (Calibration Info)
! Freq	S11:dB/Ang(F2)	S21:dB/Ang(F2)	S12:dB/Ang(F2)	S22:dB/Ang(F2)
5.00000000000E+08	-1.42052259696E+01	-3.33399905664E+01	-8.00955361742E-01	-1.22478801141E+02	-7.99377052396E-01	-1.22568795631E+02	-1.42707474606E+01	-3.63803398064E+01
5.00600000000E+08	-1.42137039639E+01	-3.34685749279E+01	-8.00372636654E-01	-1.22635778655E+02	-7.98948574054E-01	-1.22730535273E+02	-1.42843936580E+01	-3.65288868803E+01
5.01200000000E+08	-1.42170592993E+01	-3.36003632323E+01	-8.04439788804E-01	-1.22801616624E+02	-8.04394251956E-01	-1.22898350101E+02	-1.42942014506E+01	-3.67129031145E+01
5.01800000000E+08	-1.42221764844E+01	-3.37411206373E+01	-8.02032326212E-01	-1.22958890697E+02	-8.05117178267E-01	-1.23046921346E+02	-1.43017189255E+01	-3.68898575505E+01
5.02400000000E+08	-1.42238364979E+01	-3.38756254910E+01	-8.05019064196E-01	-1.23149100107E+02	-8.05900361748E-01	-1.23225262791E+02	-1.43107321029E+01	-3.70247040422E+01
5.03000000000E+08	-1.42233369265E+01	-3.39881699407E+01	-8.03853733391E-01	-1.23306337498E+02	-8.05585971701E-01	-1.23404788047E+02	-1.43133333131E+01	-3.71487434362E+01
5.03600000000E+08	-1.42226139341E+01	-3.41185483457E+01	-8.08512541808E-01	-1.23475423090E+02	-8.07929252169E-01	-1.23596608354E+02	-1.43172480022E+01	-3.73054075969E+01
5.04200000000E+08	-1.42160927652E+01	-3.42885006023E+01	-8.09307565408E-01	-1.23664718466E+02	-8.08493192878E-01	-1.23745999102E+02	-1.43190315563E+01	-3.74457656293E+01
5.04800000000E+08	-1.42118181836E+01	-3.44761712123E+01	-8.13101475059E-01	-1.23850883728E+02	-8.12135255781E-01	-1.23940447007E+02	-1.43105556061E+01	-3.76191978209E+01
5.05400000000E+08	-1.42111319808E+01	-3.47394082706E+01	-8.15642955565E-01	-1.24007479807E+02	-8.17540958941E-01	-1.24106297479E+02	-1.43139670394E+01	-3.78300108431E+01
5.06000000000E+08	-1.42094526220E+01	-3.49418255507E+01	-8.19241107921E-01	-1.24187610009E+02	-8.18899680004E-01	-1.24287252609E+02	-1.43138186015E+01	-3.80625587556E+01
5.06600000000E+08	-1.42193377344E+01	-3.51680149769E+01	-8.21906169561E-01	-1.24368418938E+02	-8.26985828362E-01	-1.24464033961E+02	-1.43190996566E+01	-3.83204856334E+01
5.07200000000E+08	-1.42312070660E+01	-3.53809711625E+01	-8.27900828061E-01	-1.24533675874E+02	-8.30055079828E-01	-1.24612229343E+02	-1.43306557600E+01	-3.85642629833E+01
5.07800000000E+08	-1.42400547293E+01	-3.55753055383E+01	-8.32244078282E-01	-1.24680296276E+02	-8.32350496852E-01	-1.24759260305E+02	-1.43479644044E+01	-3.87465898532E+01
5.08400000000E+08	-1.42539997382E+01	-3.57069084630E+01	-8.34498901430E-01	-1.24858599095E+02	-8.34397377091E-01	-1.24928628986E+02	-1.43632391883E+01	-3.89230364681E+01
5.09000000000E+08	-1.42647123167E+01	-3.58308459741E+01	-8.34608796696E-01	-1.24989773499E+02	-8.36421999243E-01	-1.25088826450E+02	-1.43769740334E+01	-3.90730979524E+01
5.09600000000E+08	-1.42765212944E+01	-3.59674196049E+01	-8.35235070081E-01	-1.25156227949E+02	-8.35788528753E-01	-1.25257911565E+02	-1.43860012377E+01	-3.91676085225E+01
5.10200000000E+08	-1.42807540643E+01	-3.60740184585E+01	-8.35548152211E-01	-1.25341959211E+02	-8.39022600734E-01	-1.25425477847E+02	-1.43900344143E+01	-3.92884391994E+01
5.10800000000E+08	-1.42815243531E+01	-3.62007409733E+01	-8.36910230576E-01	-1.25526218543E+02	-8.38482721108E-01	-1.25601422566E+02	-1.43861176514E+01	-3.94493669858E+01
5.11400000000E+08	-1.42759287493E+01	-3.63144079745E+01	-8.36390996348E-01	-1.25716821220E+02	-8.39759902133E-01	-1.25792894317E+02	-1.43862104440E+01	-3.95770965861E+01
5.12000000000E+08	-1.42727035399E+01	-3.64609946006E+01	-8.41863598231E-01	-1.25887263130E+02	-8.43112761866E-01	-1.25967444949E+02	-1.43820851109E+01	-3.97464172843E+01
5.12600000000E+08	-1.42720770836E+01	-3.66697829494E+01	-8.45644515857E-01	-1.26068564740E+02	-8.41297794778E-01	-1.26147482508E+02	-1.43817719187E+01	-3.99308440819E+01
5.13200000000E+08	-1.42746641996E+01	-3.68545240506E+01	-8.48405195186E-01	-1.26246290362E+02	-8.47237755099E-01	-1.26318291253E+02	-1.43858310049E+01	-4.01279007248E+01
5.13800000000E+08	-1.42735802680E+01	-3.70033242229E+01	-8.51297281875E-01	-1.26424031880E+02	-8.49684368208E-01	-1.26503915199E+02	-1.43864629576E+01	-4.03043534749E+01
5.14400000000E+08	-1.42739594419E+01	-3.71825360119E+01	-8.53136611073E-01	-1.26611629890E+02	-8.52911711929E-01	-1.26711730999E+02	-1.43840296718E+01	-4.04817053747E+01
5.15000000000E+08	-1.42711292732E+01	-3.73667632165E+01	-8.52916723837E-01	-1.26772564384E+02	-8.54806681723E-01	-1.26883088201E+02	-1.43817600576E+01	-4.06556407564E+01
5.15600000000E+08	-1.42732172991E+01	-3.75432441431E+01	-8.60491055697E-01	-1.26972468341E+02	-8.58013187717E-01	-1.27065211299E+02	-1.43782201046E+01	-4.08647840616E+01
5.16200000000E+08	-1.42721625952E+01	-3.77940139812E+01	-8.63433885669E-01	-1.27155076022E+02	-8.61745422454E-01	-1.27250174561E+02	-1.43744834992E+01	-4.10784835286E+01
5.16800000000E+08	-1.42751954580E+01	-3.79884459577E+01	-8.67615256913E-01	-1.27338511037E+02	-8.67141935387E-01	-1.27441182774E+02	-1.43683991727E+01	-4.13256034158E+01
5.17400000000E+08	-1.42777552184E+01	-3.82198019214E+01	-8.70518595288E-01	-1.27503106755E+02	-8.71244017792E-01	-1.27608490051E+02	-1.43657113132E+01	-4.15766265829E+01
5.18000000000E+08	-1.42847785310E+01	-3.84632031584E+01	-8.75539351074E-01	-1.27692240509E+02	-8.76708149841E-01	-1.27791403399E+02	-1.43676114346E+01	-4.18528378430E+01
5.18600000000E+08	-1.42976820720E+01	-3.86458868690E+01	-8.81179363427E-01	-1.27860288685E+02	-8.78430711990E-01	-1.27971674613E+02	-1.43674725392E+01	-4.20989887315E+01
5.19200000000E+08	-1.42989160212E+01	-3.88755165154E+01	-8.88744095811E-01	-1.28019800543E+02	-8.88022839041E-01	-1.28162631800E+02	-1.43732265640E+01	-4.23930580109E+01
5.19800000000E+08	-1.43102886052E+01	-3.91078022733E+01	-8.90354002501E-01	-1.28209889363E+02	-8.89820568345E-01	-1.28304024303E+02	-1.43773479046E+01	-4.26715533270E+01
5.20400000000E+08	-1.43246694152E+01	-3.93271545519E+01	-8.97155952207E-01	-1.28390827440E+02	-8.97105161177E-01	-1.28495121687E+02	-1.43867656032E+01	-4.29642441307E+01
5.21000000000E+08	-1.43380065763E+01	-3.95409448912E+01	-9.02447813609E-01	-1.28549176606E+02	-9.00403762753E-01	-1.28640164529E+02	-1.44013798284E+01	-4.32481985871E+01
5.21600000000E+08	-1.43529663699E+01	-3.96908138822E+01	-9.04173639480E-01	-1.28704859047E+02	-9.02370596103E-01	-1.28812207475E+02	-1.44196077044E+01	-4.35095800496E+01
5.22200000000E+08	-1.43677525299E+01	-3.98856391320E+01	-9.05658706636E-01	-1.28873318451E+02	-9.05219755827E-01	-1.28987307398E+02	-1.44342217224E+01	-4.37261390556E+01
5.22800000000E+08	-1.43820357685E+01	-4.00317973560E+01	-9.10514479112E-01	-1.29029285149E+02	-9.09290519586E-01	-1.29141059392E+02	-1.44532154340E+01	-4.39258253130E+01
5.23400000000E+08	-1.43969336535E+01	-4.01430988606E+01	-9.11793411925E-01	-1.29202015641E+02	-9.12635349285E-01	-1.29316916579E+02	-1.44677178730E+01	-4.41207796954E+01
5.24000000000E+08	-1.44058443739E+01	-4.02210094132E+01	-9.11963084044E-01	-1.29376781842E+02	-9.15543006981E-01	-1.29484750108E+02	-1.44807788308E+01	-4.42587803006E+01
5.24600000000E+08	-1.44073178113E+01	-4.03395318623E+01	-9.12025336780E-01	-1.29554159392E+02	-9.15642760290E-01	-1.29647358913E+02	-1.44876901090E+01	-4.44179403843E+01
5.25200000000E+08	-1.44026391354E+01	-4.04653069822E+01	-9.14045626977E-01	-1.29749888663E+02	-9.15654048602E-01	-1.29838403472E+02	-1.44940781684E+01	-4.45810536515E+01
5.25800000000E+08	-1.43966562897E+01	-4.06203996720E+01	-9.16375439302E-01	-1.29939543026E+02	-9.20395180716E-01	-1.30046775300E+02	-1.44941587893E+01	-4.47955440885E+01
5.26400000000E+08	-1.43897371361E+01	-4.08313500376E+01	-9.20438287275E-01	-1.30131379774E+02	-9.23433543338E-01	-1.30228407250E+02	-1.44957959158E+01	-4.50153582362E+01
5.27000000000E+08	-1.43868229265E+01	-4.10860703635E+01	-9.25215272501E-01	-1.30326983329E+02	-9.27949751212E-01	-1.30419899577E+02	-1.44954596284E+01	-4.52300429756E+01
5.27600000000E+08	-1.43930236047E+01	-4.13287803175E+01	-9.32932695943E-01	-1.30502794104E+02	-9.31012031174E-01	-1.30587908784E+02	-1.45015391426E+01	-4.54908538074E+01
5.28200000000E+08	-1.44021016259E+01	-4.15959589996E+01	-9.36137453039E-01	-1.30685677332E+02	-9.38980051204E-01	-1.30784475613E+02	-1.45097168267E+01	-4.57452741230E+01
5.28800000000E+08	-1.44158710082E+01	-4.18253871262E+01	-9.39714071803E-01	-1.30855997507E+02	-9.41571921332E-01	-1.30960010234E+02	-1.45195935978E+01	-4.59313948046E+01
5.29400000000E+08	-1.44203953832E+01	-4.20010184371E+01	-9.45644293684E-01	-1.31032629261E+02	-9.46399540607E-01	-1.31138584132E+02	-1.45314512936E+01	-4.61978456220E+01
5.30000000000E+08	-1.44299624629E+01	-4.21950075917E+01	-9.47610909655E-01	-1.31226237351E+02	-9.48084434157E-01	-1.31327631606E+02	-1.45409044842E+01	-4.63753899371E+01
5.30600000000E+08	-1.44350556307E+01	-4.23636500968E+01	-9.51750790689E-01	-1.31415521806E+02	-9.52969596236E-01	-1.31510360205E+02	-1.45461154784E+01	-4.65871960176E+01
5.31200000000E+08	-1.44412907521E+01	-4.25696650990E+01	-9.56136933529E-01	-1.31587513972E+02	-9.57630328858E-01	-1.31696404829E+02	-1.45467004065E+01	-4.67785703996E+01
5.31800000000E+08	-1.44442590596E+01	-4.27781697908E+01	-9.60444023436E-01	-1.31772965287E+02	-9.64095729338E-01	-1.31892514046E+02	-1.45508640630E+01	-4.70768677525E+01
5.32400000000E+08	-1.44517407913E+01	-4.30034175126E+01	-9.67042091963E-01	-1.31962452806E+02	-9.66179817547E-01	-1.32066511001E+02	-1.45515509853E+01	-4.72763707001E+01
5.33000000000E+08	-1.44541800561E+01	-4.32504155145E+01	-9.70854214296E-01	-1.32147026060E+02	-9.73081324590E-01	-1.32237177152E+02	-1.45555930183E+01	-4.75455843050E+01
5.33600000000E+08	-1.44643129266E+01	-4.34692824455E+01	-9.77339848064E-01	-1.32329226160E+02	-9.76520760109E-01	-1.32413092758E+02	-1.45585640973E+01	-4.77867431107E+01
5.34200000000E+08	-1.44716367300E+01	-4.37293678351E+01	-9.84053235583E-01	-1.32516622462E+02	-9.82394266118E-01	-1.32606501880E+02	-1.45676013232E+01	-4.80780039393E+01
5.34800000000E+08	-1.44861110578E+01	-4.39337536147E+01	-9.87522663522E-01	-1.32686949917E+02	-9.85314591129E-01	-1.32784671945E+02	-1.45675579913E+01	-4.83708455223E+01
5.35400000000E+08	-1.44926852645E+01	-4.41361142031E+01	-9.95215664020E-01	-1.32868483061E+02	-9.91614103369E-01	-1.32979706908E+02	-1.45750290798E+01	-4.86689989978E+01
5.36000000000E+08	-1.44995438209E+01	-4.43719112634E+01	-9.99631066666E-01	-1.33039311090E+02	-9.98582319278E-01	-1.33144406019E+02	-1.45826556891E+01	-4.89561990002E+01
5.36600000000E+08	-1.45065063341E+01	-4.45845287207E+01	-1.00496529131E+00	-1.33230524276E+02	-1.00591813389E+00	-1.33314631047E+02	-1.45993161676E+01	-4.92628418662E+01
5.37200000000E+08	-1.45111457157E+01	-4.48307337366E+01	-1.01094001158E+00	-1.33405112308E+02	-1.00982887419E+00	-1.33504107406E+02	-1.46089180010E+01	-4.95611138912E+01
5.37800000000E+08	-1.45183599279E+01	-4.50997776464E+01	-1.01520036574E+00	-1.33581850360E+02	-1.01607608164E+00	-1.33692065715E+02	-1.46201901137E+01	-4.98389901204E+01
5.38400000000E+08	-1.45243448338E+01	-4.53477152625E+01	-1.02171515835E+00	-1.33779386074E+02	-1.02128142645E+00	-1.33865023580E+02	-1.46386020658E+01	-5.01821938165E+01
5.39000000000E+08	-1.45371020185E+01	-4.56433453728E+01	-1.02658095057E+00	-1.33935803351E+02	-1.03009907791E+00	-1.34038487101E+02	-1.46570528770E+01	-5.04718001383E+01
5.39600000000E+08	-1.45538360834E+01	-4.58899237365E+01	-1.03617330412E+00	-1.34113484770E+02	-1.03499462072E+00	-1.34218838143E+02	-1.46812807581E+01	-5.07750000976E+01
5.40200000000E+08	-1.45690193451E+01	-4.61402002585E+01	-1.03884818980E+00	-1.34270827216E+02	-1.04112791577E+00	-1.34388200120E+02	-1.47022888080E+01	-5.10495509166E+01
5.40800000000E+08	-1.45835601127E+01	-4.63672931207E+01	-1.04231361516E+00	-1.34456271487E+02	-1.04693254193E+00	-1.34570923448E+02	-1.47211940216E+01	-5.12942651494E+01
5.41400000000E+08	-1.45944455152E+01	-4.66072063765E+01	-1.04770850770E+00	-1.34638154248E+02	-1.05262799263E+00	-1.34738880019E+02	-1.47453712434E+01	-5.15209961939E+01
5.42000000000E+08	-1.46100091992E+01	-4.68338776961E+01	-1.05326168240E+00	-1.34811853851E+02	-1.05610058658E+00	-1.34906121959E+02	-1.47630715911E+01	-5.17807409750E+01
5.42600000000E+08	-1.46212919690E+01	-4.70622941314E+01	-1.06044541029E+00	-1.34991173438E+02	-1.06165795836E+00	-1.35084249101E+02	-1.47783864383E+01	-5.20346491337E+01
5.43200000000E+08	-1.46314566749E+01	-4.73350366704E+01	-1.06579782924E+00	-1.35169997424E+02	-1.06823841420E+00	-1.35255440857E+02	-1.48013166427E+01	-5.22935175129E+01
5.43800000000E+08	-1.46452598825E+01	-4.76104441674E+01	-1.07306549543E+00	-1.35327715051E+02	-1.07199605145E+00	-1.35425418938E+02	-1.48228746170E+01	-5.25817553530E+01
5.44400000000E+08	-1.46635822867E+01	-4.78783075047E+01	-1.07984480292E+00	-1.35519931949E+02	-1.08239062824E+00	-1.35606059540E+02	-1.48411909990E+01	-5.28224513462E+01
5.45000000000E+08	-1.46832501410E+01	-4.81378462644E+01	-1.08340454719E+00	-1.35688537387E+02	-1.08783473107E+00	-1.35775784234E+02	-1.48630475961E+01	-5.31067096718E+01
5.45600000000E+08	-1.46976976601E+01	-4.83851517902E+01	-1.08973891322E+00	-1.35867842613E+02	-1.09257967918E+00	-1.35954309327E+02	-1.48894137790E+01	-5.33604393350E+01
5.46200000000E+08	-1.47126140405E+01	-4.86297340412E+01	-1.09649580681E+00	-1.36022559849E+02	-1.09995879692E+00	-1.36107910445E+02	-1.49178431033E+01	-5.36245518231E+01
5.46800000000E+08	-1.47327964997E+01	-4.88798595918E+01	-1.10086369382E+00	-1.36211038753E+02	-1.10316986358E+00	-1.36266398903E+02	-1.49482839462E+01	-5.38387914991E+01
5.47400000000E+08	-1.47486976118E+01	-4.91746140515E+01	-1.10685320014E+00	-1.36363454544E+02	-1.10884658999E+00	-1.36443638434E+02	-1.49772182189E+01	-5.40595447016E+01
5.48000000000E+08	-1.47647106796E+01	-4.94400650648E+01	-1.11428821421E+00	-1.36541941212E+02	-1.11174084562E+00	-1.36617895351E+02	-1.50024996485E+01	-5.42476398157E+01
5.48600000000E+08	-1.47829040717E+01	-4.97631757493E+01	-1.11839326770E+00	-1.36699991311E+02	-1.11777291546E+00	-1.36777586310E+02	-1.50276546632E+01	-5.45033034443E+01
5.49200000000E+08	-1.48110140444E+01	-5.00868278979E+01	-1.12551063550E+00	-1.36866407048E+02	-1.12499309423E+00	-1.36965504608E+02	-1.50541127500E+01	-5.47164737660E+01
5.49800000000E+08	-1.48497762453E+01	-5.04265301389E+01	-1.13110453538E+00	-1.37032627523E+02	-1.12910346757E+00	-1.37120289110E+02	-1.50852531575E+01	-5.49605108858E+01
5.50400000000E+08	-1.48934151317E+01	-5.06572317889E+01	-1.13398322002E+00	-1.37153700983E+02	-1.13536647768E+00	-1.37275853124E+02	-1.51272201232E+01	-5.51270940956E+01
5.51000000000E+08	-1.49417807348E+01	-5.08352827958E+01	-1.13668231704E+00	-1.37311736444E+02	-1.13717039585E+00	-1.37426113242E+02	-1.51576393770E+01	-5.52193519284E+01
5.51600000000E+08	-1.49757195966E+01	-5.09089807960E+01	-1.13529557121E+00	-1.37471475918E+02	-1.13889346849E+00	-1.37593051723E+02	-1.51862360104E+01	-5.52858829456E+01
5.52200000000E+08	-1.50013885370E+01	-5.09765428661E+01	-1.13422244761E+00	-1.37650615292E+02	-1.13645256801E+00	-1.37750384446E+02	-1.52010460489E+01	-5.53573457510E+01
5.52800000000E+08	-1.50224651564E+01	-5.10337277538E+01	-1.13434256902E+00	-1.37851415824E+02	-1.13774688726E+00	-1.37957386875E+02	-1.52080644391E+01	-5.53907253542E+01
5.53400000000E+08	-1.50278170499E+01	-5.11099410142E+01	-1.13699830283E+00	-1.38048577153E+02	-1.14023130445E+00	-1.38151634144E+02	-1.52121567653E+01	-5.55359028830E+01
5.54000000000E+08	-1.50272737672E+01	-5.12773781352E+01	-1.13939270769E+00	-1.38259583525E+02	-1.14017318349E+00	-1.38344927935E+02	-1.52082909692E+01	-5.56984885985E+01
5.54600000000E+08	-1.50273035604E+01	-5.14491050524E+01	-1.14747170989E+00	-1.38471905493E+02	-1.14579864266E+00	-1.38568272470E+02	-1.52114813962E+01	-5.59486299711E+01
5.55200000000E+08	-1.50309116906E+01	-5.16874849197E+01	-1.15260274961E+00	-1.38676624093E+02	-1.15455036836E+00	-1.38762834485E+02	-1.52093223838E+01	-5.62231494879E+01
5.55800000000E+08	-1.50294826947E+01	-5.19785171698E+01	-1.15942601090E+00	-1.38859188646E+02	-1.16193479238E+00	-1.38948453893E+02	-1.52120216240E+01	-5.65460982184E+01
5.56400000000E+08	-1.50402031668E+01	-5.23048031009E+01	-1.16617744536E+00	-1.39053487900E+02	-1.16881813910E+00	-1.39143101765E+02	-1.52264385682E+01	-5.69303897176E+01
5.57000000000E+08	-1.50580373973E+01	-5.26515409420E+01	-1.17598246696E+00	-1.39236605741E+02	-1.18017883943E+00	-1.39327352699E+02	-1.52507063339E+01	-5.73275540366E+01
5.57600000000E+08	-1.50874458740E+01	-5.30070610464E+01	-1.18598893793E+00	-1.39392503325E+02	-1.18775179090E+00	-1.39469514680E+02	-1.52927005696E+01	-5.76950890896E+01
5.58200000000E+08	-1.51265993691E+01	-5.32622403854E+01	-1.19268040196E+00	-1.39549602938E+02	-1.19447003594E+00	-1.39624995148E+02	-1.53471891948E+01	-5.79338053667E+01
5.58800000000E+08	-1.51718364221E+01	-5.34826962810E+01	-1.19406195857E+00	-1.39700615255E+02	-1.19707371344E+00	-1.39787008864E+02	-1.54022851955E+01	-5.81410911471E+01
5.59400000000E+08	-1.52089582675E+01	-5.35469039553E+01	-1.19328536964E+00	-1.39860544069E+02	-1.19839720491E+00	-1.39941825316E+02	-1.54466568870E+01	-5.81669068930E+01
5.60000000000E+08	-1.52358329673E+01	-5.36306136709E+01	-1.19421307988E+00	-1.40041023685E+02	-1.19852815740E+00	-1.40128876400E+02	-1.54786180050E+01	-5.81875281216E+01
5.60600000000E+08	-1.52431618684E+01	-5.36968865258E+01	-1.19605282885E+00	-1.40247440305E+02	-1.19903448701E+00	-1.40306617021E+02	-1.54969727181E+01	-5.82032182094E+01
5.61200000000E+08	-1.52447088616E+01	-5.38380304432E+01	-1.19986520681E+00	-1.40442109961E+02	-1.20103335217E+00	-1.40497352228E+02	-1.55107285322E+01	-5.82491907098E+01
5.61800000000E+08	-1.52508208681E+01	-5.40025300643E+01	-1.20269743420E+00	-1.40622349935E+02	-1.20195425587E+00	-1.40704488073E+02	-1.55157361894E+01	-5.83132893849E+01
5.62400000000E+08	-1.52567102686E+01	-5.42113294719E+01	-1.20803855594E+00	-1.40836249689E+02	-1.20733500519E+00	-1.40924313344E+02	-1.55081859807E+01	-5.84840915505E+01
5.63000000000E+08	-1.52646398503E+01	-5.44750590587E+01	-1.21265746369E+00	-1.41037531750E+02	-1.21011648200E+00	-1.41124146235E+02	-1.55149236394E+01	-5.86797390810E+01
5.63600000000E+08	-1.52764897755E+01	-5.47099013612E+01	-1.22062394027E+00	-1.41225701927E+02	-1.21578188943E+00	-1.41320345487E+02	-1.55186359687E+01	-5.89052137239E+01
5.64200000000E+08	-1.52899714284E+01	-5.49378005233E+01	-1.22543867415E+00	-1.41409711273E+02	-1.22380521413E+00	-1.41515263091E+02	-1.55262682970E+01	-5.91218137578E+01
5.64800000000E+08	-1.53023298006E+01	-5.51594616187E+01	-1.22996437130E+00	-1.41614193775E+02	-1.23075015398E+00	-1.41703835460E+02	-1.55455572902E+01	-5.93543862154E+01
5.65400000000E+08	-1.53202037944E+01	-5.54250691329E+01	-1.23549189389E+00	-1.41802485710E+02	-1.23549481851E+00	-1.41898661727E+02	-1.55639247371E+01	-5.95814458602E+01
5.66000000000E+08	-1.53329793895E+01	-5.56484121641E+01	-1.23967360877E+00	-1.41981470979E+02	-1.24090849122E+00	-1.42108973729E+02	-1.55886315708E+01	-5.97880132251E+01
5.66600000000E+08	-1.53478949584E+01	-5.58890384824E+01	-1.24457430925E+00	-1.42187575066E+02	-1.24421335667E+00	-1.42274473909E+02	-1.55959318100E+01	-5.99658942841E+01
5.67200000000E+08	-1.53614935413E+01	-5.61477944110E+01	-1.24944919296E+00	-1.42383804820E+02	-1.24781459530E+00	-1.42480200500E+02	-1.56063039756E+01	-6.00932387930E+01
5.67800000000E+08	-1.53838331754E+01	-5.64126987692E+01	-1.25563896679E+00	-1.42584529460E+02	-1.25723247027E+00	-1.42676498410E+02	-1.56129647099E+01	-6.02857721283E+01
5.68400000000E+08	-1.54088990141E+01	-5.66323228376E+01	-1.26537596536E+00	-1.42770050516E+02	-1.26054384520E+00	-1.42868196522E+02	-1.56199419196E+01	-6.05060707498E+01
