# Hz S DB R 50
! CMT, S5065, 24347010, 24.3.4/3
! Date: 10/15/2024 12:23:42 PM
! Data: Format (Calibration Info)
! Freq	S11:dB/Ang(F2)	S21:dB/Ang(F2)	S12:dB/Ang(F2)	S22:dB/Ang(F2)
5.00000000000E+08	-1.41954962630E+01	-3.32733984811E+01	-7.97209923604E-01	-1.22504224392E+02	-8.02080037435E-01	-1.22569798335E+02	-1.42952421411E+01	-3.64395536088E+01
5.00600000000E+08	-1.42064372932E+01	-3.34497490017E+01	-7.98643937954E-01	-1.22661456759E+02	-8.02260415539E-01	-1.22730724695E+02	-1.43130371356E+01	-3.65904113985E+01
5.01200000000E+08	-1.42102350436E+01	-3.36024939736E+01	-8.03680600415E-01	-1.22818728125E+02	-8.06422637890E-01	-1.22891248830E+02	-1.43241670201E+01	-3.67267108593E+01
5.01800000000E+08	-1.42170874773E+01	-3.37505341625E+01	-8.03922198306E-01	-1.22980399093E+02	-8.06477646283E-01	-1.23041244495E+02	-1.43352232719E+01	-3.68563183073E+01
5.02400000000E+08	-1.42216572978E+01	-3.39165831686E+01	-8.05406006920E-01	-1.23173556590E+02	-8.06341300208E-01	-1.23212743242E+02	-1.43436701821E+01	-3.69600874889E+01
5.03000000000E+08	-1.42221845341E+01	-3.40603148358E+01	-8.06078465523E-01	-1.23339113844E+02	-8.07300325183E-01	-1.23390942029E+02	-1.43415273114E+01	-3.70436510551E+01
5.03600000000E+08	-1.42236746836E+01	-3.42125492182E+01	-8.10419116687E-01	-1.23509071665E+02	-8.07412655016E-01	-1.23569427258E+02	-1.43406706113E+01	-3.71863582795E+01
5.04200000000E+08	-1.42256214225E+01	-3.44035955177E+01	-8.12258749929E-01	-1.23680415919E+02	-8.07424707396E-01	-1.23742071001E+02	-1.43362079920E+01	-3.73513897094E+01
5.04800000000E+08	-1.42266119794E+01	-3.45711887224E+01	-8.15962632518E-01	-1.23860010568E+02	-8.10479686999E-01	-1.23931464088E+02	-1.43282618847E+01	-3.75209296588E+01
5.05400000000E+08	-1.42334793408E+01	-3.47761418060E+01	-8.18097480418E-01	-1.24016116760E+02	-8.15231372856E-01	-1.24109386174E+02	-1.43331517901E+01	-3.77329542158E+01
5.06000000000E+08	-1.42349981702E+01	-3.49248925387E+01	-8.21066447437E-01	-1.24184094571E+02	-8.18374371697E-01	-1.24292594510E+02	-1.43327552995E+01	-3.79349404725E+01
5.06600000000E+08	-1.42406041118E+01	-3.50741350726E+01	-8.20142848567E-01	-1.24363064444E+02	-8.23868793934E-01	-1.24461478344E+02	-1.43334421054E+01	-3.81613642899E+01
5.07200000000E+08	-1.42426011875E+01	-3.52291078178E+01	-8.24948428682E-01	-1.24539023500E+02	-8.26806067580E-01	-1.24635020151E+02	-1.43389435038E+01	-3.83780550002E+01
5.07800000000E+08	-1.42410350999E+01	-3.53967844896E+01	-8.27498135015E-01	-1.24685836184E+02	-8.28053045025E-01	-1.24789734527E+02	-1.43496536319E+01	-3.85343097678E+01
5.08400000000E+08	-1.42438021788E+01	-3.55525442033E+01	-8.28155944730E-01	-1.24894924094E+02	-8.29086423585E-01	-1.24971901632E+02	-1.43514415313E+01	-3.86913046272E+01
5.09000000000E+08	-1.42416910396E+01	-3.57438771483E+01	-8.30992693318E-01	-1.25040507202E+02	-8.31193089873E-01	-1.25125495858E+02	-1.43545213670E+01	-3.88654787536E+01
5.09600000000E+08	-1.42461901494E+01	-3.59527826835E+01	-8.33776991294E-01	-1.25232400898E+02	-8.34268667119E-01	-1.25327005964E+02	-1.43539008672E+01	-3.90392581409E+01
5.10200000000E+08	-1.42517065957E+01	-3.61163361428E+01	-8.39948767102E-01	-1.25399582666E+02	-8.36758325956E-01	-1.25490004797E+02	-1.43538549512E+01	-3.92373383567E+01
5.10800000000E+08	-1.42544653595E+01	-3.63144637243E+01	-8.40674207446E-01	-1.25576181783E+02	-8.41806844039E-01	-1.25677797075E+02	-1.43507355767E+01	-3.94683462985E+01
5.11400000000E+08	-1.42575853381E+01	-3.65073611055E+01	-8.45577661566E-01	-1.25768637032E+02	-8.43687478793E-01	-1.25865799434E+02	-1.43551245233E+01	-3.96718448219E+01
5.12000000000E+08	-1.42683577548E+01	-3.66900542980E+01	-8.50011984087E-01	-1.25922900361E+02	-8.48157845648E-01	-1.26021212425E+02	-1.43554622703E+01	-3.98917395511E+01
5.12600000000E+08	-1.42767695463E+01	-3.68788202149E+01	-8.50309183047E-01	-1.26090497169E+02	-8.50783315452E-01	-1.26201021616E+02	-1.43639296497E+01	-4.01128763831E+01
5.13200000000E+08	-1.42886587716E+01	-3.70056988414E+01	-8.52188449017E-01	-1.26258534698E+02	-8.55487353152E-01	-1.26374506046E+02	-1.43746280525E+01	-4.03259309843E+01
5.13800000000E+08	-1.42874711773E+01	-3.71062574233E+01	-8.53409408789E-01	-1.26429437730E+02	-8.57003412599E-01	-1.26531368036E+02	-1.43835929026E+01	-4.04881872071E+01
5.14400000000E+08	-1.42860646782E+01	-3.72260231364E+01	-8.54741615095E-01	-1.26628218465E+02	-8.59679208780E-01	-1.26721771859E+02	-1.43861198950E+01	-4.06438247952E+01
5.15000000000E+08	-1.42817259506E+01	-3.73812154246E+01	-8.54647911040E-01	-1.26804823264E+02	-8.59838091874E-01	-1.26889852954E+02	-1.43878320738E+01	-4.07893402358E+01
5.15600000000E+08	-1.42749698828E+01	-3.75281762830E+01	-8.61309521839E-01	-1.27008918090E+02	-8.60989602258E-01	-1.27067068870E+02	-1.43839021731E+01	-4.09655671456E+01
5.16200000000E+08	-1.42705304929E+01	-3.77694965980E+01	-8.65395718083E-01	-1.27205072474E+02	-8.66303327640E-01	-1.27269086620E+02	-1.43799409482E+01	-4.11489757762E+01
5.16800000000E+08	-1.42651133706E+01	-3.79784004799E+01	-8.69867488121E-01	-1.27381668649E+02	-8.70097291324E-01	-1.27445721100E+02	-1.43688925704E+01	-4.13679208250E+01
5.17400000000E+08	-1.42595968039E+01	-3.82312470414E+01	-8.75546712634E-01	-1.27568226295E+02	-8.73110909401E-01	-1.27634457779E+02	-1.43621333909E+01	-4.16131393445E+01
5.18000000000E+08	-1.42592437039E+01	-3.85137754915E+01	-8.80485384652E-01	-1.27747330813E+02	-8.78792773952E-01	-1.27828360250E+02	-1.43582060779E+01	-4.19015986297E+01
5.18600000000E+08	-1.42691889380E+01	-3.87749890927E+01	-8.88872419833E-01	-1.27924660386E+02	-8.82530157888E-01	-1.28015546038E+02	-1.43554499513E+01	-4.21946663026E+01
5.19200000000E+08	-1.42734981534E+01	-3.90491859944E+01	-8.93945184037E-01	-1.28085363136E+02	-8.87845700566E-01	-1.28194520266E+02	-1.43631055166E+01	-4.25101865101E+01
5.19800000000E+08	-1.42879313964E+01	-3.93041727495E+01	-8.98605359472E-01	-1.28263901985E+02	-8.94077685215E-01	-1.28354093847E+02	-1.43698932576E+01	-4.27644237565E+01
5.20400000000E+08	-1.43025567433E+01	-3.95514949956E+01	-9.04418987699E-01	-1.28431656093E+02	-9.00208983017E-01	-1.28547352603E+02	-1.43756726222E+01	-4.30194201504E+01
5.21000000000E+08	-1.43138460808E+01	-3.97745784486E+01	-9.08954720247E-01	-1.28590882254E+02	-9.03965136019E-01	-1.28696572055E+02	-1.43808596200E+01	-4.32761079246E+01
5.21600000000E+08	-1.43288396678E+01	-3.99910786919E+01	-9.12904166956E-01	-1.28765989012E+02	-9.08398609787E-01	-1.28886152144E+02	-1.43884972681E+01	-4.35552755591E+01
5.22200000000E+08	-1.43489290816E+01	-4.02208952559E+01	-9.17216251834E-01	-1.28927526271E+02	-9.15257182572E-01	-1.29062478006E+02	-1.43939067740E+01	-4.38505604259E+01
5.22800000000E+08	-1.43643282013E+01	-4.04137490429E+01	-9.23082014363E-01	-1.29090682078E+02	-9.21074974738E-01	-1.29217798159E+02	-1.44067899362E+01	-4.41371624778E+01
5.23400000000E+08	-1.43797382873E+01	-4.06365837144E+01	-9.24897595235E-01	-1.29263439161E+02	-9.29090764727E-01	-1.29398079227E+02	-1.44166449129E+01	-4.44774584723E+01
5.24000000000E+08	-1.43949990586E+01	-4.08125505131E+01	-9.30525349505E-01	-1.29426047851E+02	-9.35792732154E-01	-1.29551876042E+02	-1.44388634484E+01	-4.47629230303E+01
5.24600000000E+08	-1.44172459318E+01	-4.10169289498E+01	-9.34298784279E-01	-1.29577906856E+02	-9.38345735800E-01	-1.29683286089E+02	-1.44618516636E+01	-4.50291137333E+01
5.25200000000E+08	-1.44403278739E+01	-4.11742716635E+01	-9.38768692602E-01	-1.29751287176E+02	-9.41627882952E-01	-1.29858800851E+02	-1.44857304965E+01	-4.52879225095E+01
5.25800000000E+08	-1.44582729828E+01	-4.12894784030E+01	-9.40042574850E-01	-1.29907977435E+02	-9.45887670186E-01	-1.30010579542E+02	-1.45091879887E+01	-4.55279025076E+01
5.26400000000E+08	-1.44746099164E+01	-4.13758475018E+01	-9.42392842968E-01	-1.30049569950E+02	-9.46775871014E-01	-1.30153894432E+02	-1.45353816918E+01	-4.57384354642E+01
5.27000000000E+08	-1.44855470767E+01	-4.15160521574E+01	-9.42358379809E-01	-1.30224821117E+02	-9.48446776540E-01	-1.30327490639E+02	-1.45613330610E+01	-4.59045122316E+01
5.27600000000E+08	-1.44995445778E+01	-4.15966183073E+01	-9.44913449528E-01	-1.30390572166E+02	-9.47734611339E-01	-1.30478397385E+02	-1.45873322414E+01	-4.60438988773E+01
5.28200000000E+08	-1.45088001476E+01	-4.17375334891E+01	-9.43737162329E-01	-1.30564506876E+02	-9.48488321842E-01	-1.30650053203E+02	-1.46080663496E+01	-4.61378295521E+01
5.28800000000E+08	-1.45145426267E+01	-4.18195210701E+01	-9.44030329670E-01	-1.30749725442E+02	-9.46804401701E-01	-1.30829284410E+02	-1.46213312352E+01	-4.61450048406E+01
5.29400000000E+08	-1.45104812266E+01	-4.19041998635E+01	-9.46619510147E-01	-1.30945378040E+02	-9.46246176031E-01	-1.31024168681E+02	-1.46241887608E+01	-4.62681237198E+01
5.30000000000E+08	-1.45073177940E+01	-4.20007638157E+01	-9.46398886681E-01	-1.31145894245E+02	-9.44829303893E-01	-1.31234247634E+02	-1.46208818635E+01	-4.63586529498E+01
5.30600000000E+08	-1.45037276483E+01	-4.21322590878E+01	-9.49157435656E-01	-1.31347670995E+02	-9.48912288740E-01	-1.31418370602E+02	-1.46154114018E+01	-4.64832270248E+01
5.31200000000E+08	-1.44942243932E+01	-4.22845478910E+01	-9.51697667901E-01	-1.31530656938E+02	-9.52565963860E-01	-1.31644524120E+02	-1.46018355978E+01	-4.66803075765E+01
5.31800000000E+08	-1.44836263595E+01	-4.24870451590E+01	-9.56501526627E-01	-1.31754640991E+02	-9.57798552289E-01	-1.31845176808E+02	-1.45931776883E+01	-4.69395893622E+01
5.32400000000E+08	-1.44725562655E+01	-4.27096402242E+01	-9.61492587374E-01	-1.31945139393E+02	-9.61587970945E-01	-1.32046378939E+02	-1.45829489064E+01	-4.71911893368E+01
5.33000000000E+08	-1.44642297490E+01	-4.30050344629E+01	-9.68518165836E-01	-1.32143528757E+02	-9.68760063411E-01	-1.32235046314E+02	-1.45815231601E+01	-4.74930363095E+01
5.33600000000E+08	-1.44695660855E+01	-4.32809684174E+01	-9.75689386951E-01	-1.32332780779E+02	-9.74977712327E-01	-1.32411640040E+02	-1.45845116656E+01	-4.77710617936E+01
5.34200000000E+08	-1.44715699587E+01	-4.35735586367E+01	-9.81816117676E-01	-1.32515751354E+02	-9.81936216447E-01	-1.32605065117E+02	-1.45946781263E+01	-4.81167436183E+01
5.34800000000E+08	-1.44798676552E+01	-4.38265861994E+01	-9.87307728452E-01	-1.32676310442E+02	-9.87005288009E-01	-1.32791536046E+02	-1.46024575920E+01	-4.84160737708E+01
5.35400000000E+08	-1.44848639699E+01	-4.40789043127E+01	-9.95657999160E-01	-1.32863235806E+02	-9.92576588814E-01	-1.32968452548E+02	-1.46136257398E+01	-4.86736110721E+01
5.36000000000E+08	-1.44901211135E+01	-4.43415524459E+01	-1.00049144576E+00	-1.33031112028E+02	-9.97684561267E-01	-1.33145046838E+02	-1.46201911686E+01	-4.89296651096E+01
5.36600000000E+08	-1.44983505982E+01	-4.46006639708E+01	-1.00550131782E+00	-1.33220516375E+02	-1.00387742773E+00	-1.33328541377E+02	-1.46331684262E+01	-4.91877913454E+01
5.37200000000E+08	-1.45017983160E+01	-4.48676496176E+01	-1.01090657436E+00	-1.33415089343E+02	-1.01071719479E+00	-1.33526331934E+02	-1.46387702959E+01	-4.94654957953E+01
5.37800000000E+08	-1.45107569333E+01	-4.51528585307E+01	-1.01428620430E+00	-1.33592792510E+02	-1.01678844728E+00	-1.33701192329E+02	-1.46450570563E+01	-4.97417337963E+01
5.38400000000E+08	-1.45200002932E+01	-4.54336069079E+01	-1.02118012802E+00	-1.33785953097E+02	-1.02329204845E+00	-1.33877912661E+02	-1.46599494158E+01	-5.00864895279E+01
5.39000000000E+08	-1.45307935489E+01	-4.57251639629E+01	-1.02505922637E+00	-1.33953208327E+02	-1.03198049732E+00	-1.34059240555E+02	-1.46739135870E+01	-5.03726562449E+01
5.39600000000E+08	-1.45444257107E+01	-4.59946591344E+01	-1.03504226988E+00	-1.34138462851E+02	-1.03656499695E+00	-1.34239445226E+02	-1.46946220741E+01	-5.06902444237E+01
5.40200000000E+08	-1.45567718104E+01	-4.62892236398E+01	-1.04131703087E+00	-1.34313875341E+02	-1.04661749331E+00	-1.34417896414E+02	-1.47096690367E+01	-5.09707870481E+01
5.40800000000E+08	-1.45677376450E+01	-4.65509976498E+01	-1.04686868215E+00	-1.34510865028E+02	-1.05272486329E+00	-1.34591518688E+02	-1.47290276743E+01	-5.12613786646E+01
5.41400000000E+08	-1.45747707563E+01	-4.68586069026E+01	-1.05295870054E+00	-1.34685267932E+02	-1.05937905183E+00	-1.34754934677E+02	-1.47489415233E+01	-5.15185543034E+01
5.42000000000E+08	-1.45947518520E+01	-4.71604510217E+01	-1.06195039945E+00	-1.34863305284E+02	-1.06490676748E+00	-1.34927720057E+02	-1.47641172194E+01	-5.18037937502E+01
5.42600000000E+08	-1.46136291275E+01	-4.74882382609E+01	-1.07165445004E+00	-1.35033819728E+02	-1.07178278767E+00	-1.35078984497E+02	-1.47825183092E+01	-5.21153510734E+01
5.43200000000E+08	-1.46384100433E+01	-4.77793248526E+01	-1.07848496452E+00	-1.35192646983E+02	-1.07717276125E+00	-1.35240031436E+02	-1.48090174842E+01	-5.23967128089E+01
5.43800000000E+08	-1.46612118406E+01	-4.80737715896E+01	-1.08542923263E+00	-1.35343528403E+02	-1.08260344109E+00	-1.35406893751E+02	-1.48371527281E+01	-5.26900435722E+01
5.44400000000E+08	-1.46936040246E+01	-4.83247649108E+01	-1.09166282915E+00	-1.35517631401E+02	-1.08835047506E+00	-1.35561770978E+02	-1.48559719882E+01	-5.29147167255E+01
5.45000000000E+08	-1.47174795874E+01	-4.85452924414E+01	-1.09293964383E+00	-1.35689404570E+02	-1.09367155832E+00	-1.35738495583E+02	-1.48803989446E+01	-5.31964605010E+01
5.45600000000E+08	-1.47357941891E+01	-4.87848662428E+01	-1.10022846383E+00	-1.35872608165E+02	-1.09674792320E+00	-1.35911826675E+02	-1.49055954977E+01	-5.34637321685E+01
5.46200000000E+08	-1.47529504621E+01	-4.90315962979E+01	-1.10723965083E+00	-1.36018845193E+02	-1.10487569747E+00	-1.36060369176E+02	-1.49360857685E+01	-5.37427394995E+01
5.46800000000E+08	-1.47753901375E+01	-4.93066568534E+01	-1.11182639219E+00	-1.36193438470E+02	-1.10994558679E+00	-1.36233496485E+02	-1.49728499180E+01	-5.40033918282E+01
5.47400000000E+08	-1.48006314421E+01	-4.96385340043E+01	-1.12246048093E+00	-1.36361220566E+02	-1.11323983483E+00	-1.36394745017E+02	-1.50119209425E+01	-5.42711343967E+01
5.48000000000E+08	-1.48264253352E+01	-4.99428700803E+01	-1.12872283834E+00	-1.36497072334E+02	-1.11903165393E+00	-1.36541294150E+02	-1.50559604265E+01	-5.44329512237E+01
5.48600000000E+08	-1.48691035638E+01	-5.02675430509E+01	-1.13420828253E+00	-1.36661170873E+02	-1.12091472667E+00	-1.36691436870E+02	-1.51002600514E+01	-5.45757942522E+01
5.49200000000E+08	-1.49148570521E+01	-5.05099166345E+01	-1.14062182077E+00	-1.36795927108E+02	-1.12471670541E+00	-1.36865455225E+02	-1.51344888553E+01	-5.46122458598E+01
5.49800000000E+08	-1.49699174330E+01	-5.07200410186E+01	-1.14106674119E+00	-1.36925923815E+02	-1.12273511635E+00	-1.37040162069E+02	-1.51566219420E+01	-5.46501830853E+01
5.50400000000E+08	-1.50157200390E+01	-5.07912999585E+01	-1.14104515609E+00	-1.37068400684E+02	-1.12450794721E+00	-1.37216269099E+02	-1.51672542406E+01	-5.46825413092E+01
5.51000000000E+08	-1.50592738936E+01	-5.08229201947E+01	-1.13956591653E+00	-1.37221838571E+02	-1.12558230968E+00	-1.37395189145E+02	-1.51690152898E+01	-5.47596888068E+01
5.51600000000E+08	-1.50821395544E+01	-5.08232676087E+01	-1.13557556942E+00	-1.37395374927E+02	-1.12738781922E+00	-1.37608276968E+02	-1.51719144569E+01	-5.49071108273E+01
5.52200000000E+08	-1.50955909210E+01	-5.08316151416E+01	-1.13576224686E+00	-1.37594377196E+02	-1.12924130233E+00	-1.37792236032E+02	-1.51679006387E+01	-5.51222718320E+01
5.52800000000E+08	-1.51043959025E+01	-5.08516437086E+01	-1.13430128003E+00	-1.37783331362E+02	-1.13472561509E+00	-1.37991591690E+02	-1.51742914069E+01	-5.53385110559E+01
5.53400000000E+08	-1.51075741605E+01	-5.09275164730E+01	-1.13782840719E+00	-1.37986519482E+02	-1.14147126390E+00	-1.38189528875E+02	-1.51883111762E+01	-5.55997595458E+01
5.54000000000E+08	-1.51080785859E+01	-5.10663088575E+01	-1.13844872572E+00	-1.38182150825E+02	-1.14313833641E+00	-1.38369152792E+02	-1.52007338947E+01	-5.58193466897E+01
5.54600000000E+08	-1.51045841496E+01	-5.12083602142E+01	-1.14410987111E+00	-1.38405371475E+02	-1.14716226072E+00	-1.38579454277E+02	-1.52160481089E+01	-5.60687998751E+01
5.55200000000E+08	-1.51001022610E+01	-5.13958012554E+01	-1.14636008351E+00	-1.38610821804E+02	-1.15528166320E+00	-1.38770838837E+02	-1.52235850002E+01	-5.63165363246E+01
5.55800000000E+08	-1.50869045887E+01	-5.16631219242E+01	-1.15377870895E+00	-1.38830852417E+02	-1.16116836565E+00	-1.38966964245E+02	-1.52331821644E+01	-5.65873887312E+01
5.56400000000E+08	-1.50896500946E+01	-5.19694629486E+01	-1.16082518678E+00	-1.39036248658E+02	-1.16940942829E+00	-1.39149013009E+02	-1.52525805111E+01	-5.69307680251E+01
5.57000000000E+08	-1.50965392386E+01	-5.23127072215E+01	-1.16991252206E+00	-1.39214849106E+02	-1.17893863489E+00	-1.39333189157E+02	-1.52769576454E+01	-5.72513556975E+01
5.57600000000E+08	-1.51133968015E+01	-5.26795149391E+01	-1.17872015572E+00	-1.39392176316E+02	-1.18715512692E+00	-1.39480928609E+02	-1.53110845926E+01	-5.75639075875E+01
5.58200000000E+08	-1.51387431632E+01	-5.29629885032E+01	-1.18684128696E+00	-1.39555812500E+02	-1.19511767177E+00	-1.39654444938E+02	-1.53508411926E+01	-5.77533253089E+01
5.58800000000E+08	-1.51726551132E+01	-5.32508066925E+01	-1.19111743461E+00	-1.39726730915E+02	-1.19852427925E+00	-1.39818422646E+02	-1.53878234778E+01	-5.79915665443E+01
5.59400000000E+08	-1.52024741889E+01	-5.34296830814E+01	-1.19364643815E+00	-1.39899177319E+02	-1.20205756284E+00	-1.39963894113E+02	-1.54243991619E+01	-5.81211285408E+01
5.60000000000E+08	-1.52316349331E+01	-5.36412917731E+01	-1.19800817096E+00	-1.40065277298E+02	-1.20473829616E+00	-1.40144491980E+02	-1.54591730046E+01	-5.82657649711E+01
5.60600000000E+08	-1.52557107994E+01	-5.37815136618E+01	-1.20030564211E+00	-1.40258277305E+02	-1.20542584463E+00	-1.40284449077E+02	-1.54919416433E+01	-5.83252490091E+01
5.61200000000E+08	-1.52711480077E+01	-5.39266539520E+01	-1.20414045164E+00	-1.40448562796E+02	-1.20398372454E+00	-1.40482757347E+02	-1.55135676026E+01	-5.83711602880E+01
5.61800000000E+08	-1.52896371073E+01	-5.40819886893E+01	-1.20748065008E+00	-1.40640638451E+02	-1.20552166803E+00	-1.40673500852E+02	-1.55260053105E+01	-5.84051070542E+01
5.62400000000E+08	-1.52978983919E+01	-5.42341908922E+01	-1.21195195788E+00	-1.40836178937E+02	-1.20822935261E+00	-1.40897507554E+02	-1.55212627085E+01	-5.85361004871E+01
5.63000000000E+08	-1.53043124059E+01	-5.44803112709E+01	-1.21780233346E+00	-1.41043748791E+02	-1.20965635056E+00	-1.41112483183E+02	-1.55226108117E+01	-5.86870942892E+01
5.63600000000E+08	-1.53100068064E+01	-5.47265999251E+01	-1.22448024571E+00	-1.41228950049E+02	-1.21573766251E+00	-1.41320198065E+02	-1.55219341440E+01	-5.89041903762E+01
5.64200000000E+08	-1.53283643183E+01	-5.49910979769E+01	-1.23148945092E+00	-1.41409831572E+02	-1.22391664223E+00	-1.41527932189E+02	-1.55248269400E+01	-5.91357261833E+01
5.64800000000E+08	-1.53440445531E+01	-5.52329405178E+01	-1.23690805499E+00	-1.41593464778E+02	-1.23298877448E+00	-1.41721327505E+02	-1.55402916483E+01	-5.94129475178E+01
5.65400000000E+08	-1.53744270514E+01	-5.55122970679E+01	-1.24319738461E+00	-1.41775797604E+02	-1.23984338299E+00	-1.41905538944E+02	-1.55610489262E+01	-5.97285210906E+01
5.66000000000E+08	-1.53991595529E+01	-5.57265104631E+01	-1.24618192998E+00	-1.41947764774E+02	-1.24593962628E+00	-1.42096057053E+02	-1.55936892424E+01	-5.99861551803E+01
5.66600000000E+08	-1.54266088410E+01	-5.58954679846E+01	-1.24988922882E+00	-1.42125802161E+02	-1.25049678483E+00	-1.42252866108E+02	-1.56195985934E+01	-6.01544284932E+01
5.67200000000E+08	-1.54458550811E+01	-5.60438260754E+01	-1.25175960973E+00	-1.42318356010E+02	-1.24986193057E+00	-1.42439357924E+02	-1.56427214402E+01	-6.02576617600E+01
5.67800000000E+08	-1.54642005369E+01	-5.61957565283E+01	-1.25338213582E+00	-1.42533480165E+02	-1.25749242690E+00	-1.42634271044E+02	-1.56600752382E+01	-6.03846604942E+01
5.68400000000E+08	-1.54838660580E+01	-5.63445751356E+01	-1.26143030879E+00	-1.42733910517E+02	-1.25732564445E+00	-1.42828643027E+02	-1.56683620842E+01	-6.05172768475E+01
