# Hz S DB R 50
! CMT, S5065, 24347010, 24.3.4/3
! Date: 10/15/2024 11:50:22 AM
! Data: Format (Calibration Info)
! Freq	S11:dB/Ang(F2)	S21:dB/Ang(F2)	S12:dB/Ang(F2)	S22:dB/Ang(F2)
5.00000000000E+08	-1.41991609740E+01	-3.37863867632E+01	-8.12724512651E-01	-1.22517469503E+02	-8.10285050959E-01	-1.22569775155E+02	-1.42751559547E+01	-3.66499192792E+01
5.00600000000E+08	-1.42264347478E+01	-3.39551629881E+01	-8.11657405775E-01	-1.22654784123E+02	-8.10892606778E-01	-1.22715510125E+02	-1.43018264018E+01	-3.68608884460E+01
5.01200000000E+08	-1.42425288197E+01	-3.40450656588E+01	-8.15846638028E-01	-1.22803558548E+02	-8.14544733337E-01	-1.22864750629E+02	-1.43213018527E+01	-3.70405297456E+01
5.01800000000E+08	-1.42570482252E+01	-3.41183212069E+01	-8.13365920579E-01	-1.22957283184E+02	-8.16543309741E-01	-1.23022592878E+02	-1.43381095919E+01	-3.71929900604E+01
5.02400000000E+08	-1.42615791494E+01	-3.41943259272E+01	-8.13491580089E-01	-1.23140449058E+02	-8.14236161344E-01	-1.23190881058E+02	-1.43506119216E+01	-3.72890865274E+01
5.03000000000E+08	-1.42636690730E+01	-3.42793257114E+01	-8.11549050829E-01	-1.23305837985E+02	-8.17058611005E-01	-1.23352523187E+02	-1.43569181712E+01	-3.73881255532E+01
5.03600000000E+08	-1.42651578643E+01	-3.44134415186E+01	-8.15464811090E-01	-1.23479522003E+02	-8.15650788969E-01	-1.23529701933E+02	-1.43610861223E+01	-3.75090698222E+01
5.04200000000E+08	-1.42653583468E+01	-3.45577086007E+01	-8.16362602603E-01	-1.23647476129E+02	-8.16397146741E-01	-1.23698912863E+02	-1.43641501338E+01	-3.77001307426E+01
5.04800000000E+08	-1.42634715262E+01	-3.47145859817E+01	-8.22128899519E-01	-1.23833666374E+02	-8.20850491532E-01	-1.23876378078E+02	-1.43646081983E+01	-3.78602711293E+01
5.05400000000E+08	-1.42635081027E+01	-3.48958826046E+01	-8.21862801031E-01	-1.23996662567E+02	-8.23766275992E-01	-1.24042615323E+02	-1.43709660869E+01	-3.80445330854E+01
5.06000000000E+08	-1.42608260260E+01	-3.50613008248E+01	-8.24332325499E-01	-1.24173136597E+02	-8.24597044246E-01	-1.24210062190E+02	-1.43778721519E+01	-3.81971191238E+01
5.06600000000E+08	-1.42655081984E+01	-3.52744647330E+01	-8.26963215804E-01	-1.24352597239E+02	-8.29125237959E-01	-1.24386808911E+02	-1.43809711594E+01	-3.83733200708E+01
5.07200000000E+08	-1.42736835357E+01	-3.54814915464E+01	-8.34500831294E-01	-1.24523525215E+02	-8.31375489981E-01	-1.24550406396E+02	-1.43838545083E+01	-3.85544170151E+01
5.07800000000E+08	-1.42825166310E+01	-3.56611664029E+01	-8.35700323909E-01	-1.24667157766E+02	-8.33763090164E-01	-1.24727489428E+02	-1.43922639214E+01	-3.87148779490E+01
5.08400000000E+08	-1.42963127173E+01	-3.57952626251E+01	-8.37158938557E-01	-1.24857580548E+02	-8.35157870528E-01	-1.24878371200E+02	-1.43957868068E+01	-3.88920624596E+01
5.09000000000E+08	-1.43029434307E+01	-3.59240250183E+01	-8.39831361000E-01	-1.24996212116E+02	-8.38300012874E-01	-1.25047867946E+02	-1.44036224214E+01	-3.90816391639E+01
5.09600000000E+08	-1.43142526960E+01	-3.60492882244E+01	-8.39389364278E-01	-1.25149285220E+02	-8.39322424763E-01	-1.25215213956E+02	-1.44091822724E+01	-3.92292245494E+01
5.10200000000E+08	-1.43160188974E+01	-3.61733491944E+01	-8.41162579190E-01	-1.25344095424E+02	-8.41096580666E-01	-1.25387922645E+02	-1.44154047001E+01	-3.93897442175E+01
5.10800000000E+08	-1.43217963275E+01	-3.62917849550E+01	-8.43602811315E-01	-1.25515751336E+02	-8.40907707086E-01	-1.25569844843E+02	-1.44157208570E+01	-3.95563372504E+01
5.11400000000E+08	-1.43220749374E+01	-3.64123578455E+01	-8.43082885287E-01	-1.25693943863E+02	-8.41909112099E-01	-1.25737488930E+02	-1.44222386420E+01	-3.96826713510E+01
5.12000000000E+08	-1.43259478653E+01	-3.65160457416E+01	-8.44948452731E-01	-1.25869945123E+02	-8.44470551083E-01	-1.25912819248E+02	-1.44239209629E+01	-3.97991738008E+01
5.12600000000E+08	-1.43232455252E+01	-3.66531332783E+01	-8.45863160624E-01	-1.26056132743E+02	-8.42483289155E-01	-1.26092637208E+02	-1.44223982313E+01	-3.99528054202E+01
5.13200000000E+08	-1.43194720706E+01	-3.67648566566E+01	-8.47826725972E-01	-1.26214889002E+02	-8.45062082717E-01	-1.26274849911E+02	-1.44172173573E+01	-4.01234181188E+01
5.13800000000E+08	-1.43084668144E+01	-3.68850786137E+01	-8.47729960239E-01	-1.26410606912E+02	-8.47151192961E-01	-1.26471599243E+02	-1.44149280335E+01	-4.02718230541E+01
5.14400000000E+08	-1.42989222143E+01	-3.70583611548E+01	-8.51717878895E-01	-1.26613865284E+02	-8.49998188405E-01	-1.26680663422E+02	-1.44082552902E+01	-4.04474306911E+01
5.15000000000E+08	-1.42929882973E+01	-3.72552597841E+01	-8.52584319077E-01	-1.26786582035E+02	-8.52438265001E-01	-1.26862251725E+02	-1.44033588643E+01	-4.06237135909E+01
5.15600000000E+08	-1.42867968366E+01	-3.74347246315E+01	-8.59280172094E-01	-1.26990216411E+02	-8.54805736837E-01	-1.27048607208E+02	-1.43956439260E+01	-4.08236568554E+01
5.16200000000E+08	-1.42829148923E+01	-3.76855234146E+01	-8.63391768237E-01	-1.27187333001E+02	-8.61888897899E-01	-1.27246878287E+02	-1.43872658690E+01	-4.10507172746E+01
5.16800000000E+08	-1.42812515445E+01	-3.78995602280E+01	-8.66436111061E-01	-1.27357979819E+02	-8.65774099370E-01	-1.27432805368E+02	-1.43759738444E+01	-4.12870337166E+01
5.17400000000E+08	-1.42776811261E+01	-3.81426625267E+01	-8.71685445959E-01	-1.27545414060E+02	-8.70882927285E-01	-1.27602920130E+02	-1.43679214161E+01	-4.15413943846E+01
5.18000000000E+08	-1.42800523801E+01	-3.83956675146E+01	-8.76120279577E-01	-1.27733189804E+02	-8.75834400961E-01	-1.27795610063E+02	-1.43628604271E+01	-4.18369814269E+01
5.18600000000E+08	-1.42890924112E+01	-3.86099595991E+01	-8.81973483112E-01	-1.27896204910E+02	-8.79842319089E-01	-1.27981971122E+02	-1.43603683676E+01	-4.20964065176E+01
5.19200000000E+08	-1.42924248982E+01	-3.88677223612E+01	-8.86828936860E-01	-1.28112865173E+02	-8.85348460739E-01	-1.28151979288E+02	-1.43597526430E+01	-4.24083569508E+01
5.19800000000E+08	-1.42953052433E+01	-3.90917112076E+01	-8.91548381675E-01	-1.28248976385E+02	-8.91489164943E-01	-1.28327839123E+02	-1.43627634174E+01	-4.26816140802E+01
5.20400000000E+08	-1.43019551517E+01	-3.93201462999E+01	-8.97546480219E-01	-1.28427875048E+02	-8.98102474491E-01	-1.28511018631E+02	-1.43656301106E+01	-4.29765091281E+01
5.21000000000E+08	-1.43107883614E+01	-3.95806941827E+01	-9.03174498932E-01	-1.28596713362E+02	-9.03392662638E-01	-1.28671337485E+02	-1.43705816049E+01	-4.32758542011E+01
5.21600000000E+08	-1.43225512256E+01	-3.98146728436E+01	-9.07100721997E-01	-1.28775187373E+02	-9.08829837167E-01	-1.28856471354E+02	-1.43802033529E+01	-4.35960383124E+01
5.22200000000E+08	-1.43466445232E+01	-4.00621960710E+01	-9.14910414073E-01	-1.28929213305E+02	-9.14501539774E-01	-1.29013484351E+02	-1.43905320657E+01	-4.39236780907E+01
5.22800000000E+08	-1.43656358298E+01	-4.02315554991E+01	-9.18211011741E-01	-1.29092487064E+02	-9.21355370978E-01	-1.29161517107E+02	-1.44127996275E+01	-4.42301763769E+01
5.23400000000E+08	-1.43864278738E+01	-4.03494554186E+01	-9.19726727082E-01	-1.29256448034E+02	-9.28318367809E-01	-1.29316502639E+02	-1.44354343436E+01	-4.45147960820E+01
5.24000000000E+08	-1.43988502399E+01	-4.04240734892E+01	-9.21875724904E-01	-1.29431944507E+02	-9.29767628810E-01	-1.29466967093E+02	-1.44634962961E+01	-4.46910323137E+01
5.24600000000E+08	-1.44005472458E+01	-4.05148300001E+01	-9.23449349067E-01	-1.29578967293E+02	-9.28802817178E-01	-1.29606538470E+02	-1.44860675314E+01	-4.48528793529E+01
5.25200000000E+08	-1.43968926394E+01	-4.06339946565E+01	-9.25172455692E-01	-1.29777323804E+02	-9.28032707848E-01	-1.29801474997E+02	-1.45006395347E+01	-4.49717080904E+01
5.25800000000E+08	-1.43867076919E+01	-4.07897314419E+01	-9.27262661724E-01	-1.29967813468E+02	-9.28647828990E-01	-1.29979738752E+02	-1.45048539476E+01	-4.51026416565E+01
5.26400000000E+08	-1.43799747373E+01	-4.09700299922E+01	-9.32130895198E-01	-1.30145110592E+02	-9.30805136145E-01	-1.30174627516E+02	-1.45048937882E+01	-4.52888128937E+01
5.27000000000E+08	-1.43747454573E+01	-4.12582543339E+01	-9.36519410767E-01	-1.30342026467E+02	-9.34079944306E-01	-1.30369788040E+02	-1.45015463688E+01	-4.54716611720E+01
5.27600000000E+08	-1.43768398830E+01	-4.15051706583E+01	-9.42140755167E-01	-1.30511526852E+02	-9.38615634715E-01	-1.30550226223E+02	-1.45031379824E+01	-4.57443186195E+01
5.28200000000E+08	-1.43867394830E+01	-4.18027257631E+01	-9.46401831643E-01	-1.30691530069E+02	-9.45459176697E-01	-1.30731856234E+02	-1.45082632394E+01	-4.59939660684E+01
5.28800000000E+08	-1.43992193192E+01	-4.20351234660E+01	-9.50210289571E-01	-1.30856886464E+02	-9.48886854857E-01	-1.30903930105E+02	-1.45178999080E+01	-4.62135481421E+01
5.29400000000E+08	-1.44100446639E+01	-4.22547551009E+01	-9.57903309482E-01	-1.31042499841E+02	-9.53341939367E-01	-1.31068326657E+02	-1.45305766712E+01	-4.64932168563E+01
5.30000000000E+08	-1.44245959723E+01	-4.24381347892E+01	-9.61221813631E-01	-1.31215955656E+02	-9.56016673289E-01	-1.31255177398E+02	-1.45464085065E+01	-4.66890249926E+01
5.30600000000E+08	-1.44384102362E+01	-4.25888187043E+01	-9.64858901967E-01	-1.31386606122E+02	-9.60554960559E-01	-1.31433085853E+02	-1.45598589612E+01	-4.68752141036E+01
5.31200000000E+08	-1.44451016411E+01	-4.27458848600E+01	-9.66933183365E-01	-1.31549839228E+02	-9.62614625396E-01	-1.31617127761E+02	-1.45682391770E+01	-4.70174624230E+01
5.31800000000E+08	-1.44508977790E+01	-4.28912589665E+01	-9.71440429348E-01	-1.31741424632E+02	-9.65898662147E-01	-1.31810806353E+02	-1.45741453723E+01	-4.72252240681E+01
5.32400000000E+08	-1.44519654381E+01	-4.30749079152E+01	-9.74076323018E-01	-1.31922760467E+02	-9.66912903074E-01	-1.32002079866E+02	-1.45665597138E+01	-4.74011492860E+01
5.33000000000E+08	-1.44495672268E+01	-4.32601141685E+01	-9.78110586679E-01	-1.32093436100E+02	-9.75457930613E-01	-1.32186267980E+02	-1.45638602450E+01	-4.76333994011E+01
5.33600000000E+08	-1.44513519167E+01	-4.34882575051E+01	-9.82428483387E-01	-1.32285221020E+02	-9.78925471815E-01	-1.32387730477E+02	-1.45559257358E+01	-4.78955053111E+01
5.34200000000E+08	-1.44500905893E+01	-4.37330778051E+01	-9.87130291504E-01	-1.32470093884E+02	-9.85146066873E-01	-1.32568446738E+02	-1.45605584149E+01	-4.81805003002E+01
5.34800000000E+08	-1.44541390017E+01	-4.39799986595E+01	-9.91719987263E-01	-1.32655082287E+02	-9.90109900095E-01	-1.32765337394E+02	-1.45579941749E+01	-4.84899832303E+01
5.35400000000E+08	-1.44537296118E+01	-4.42140163885E+01	-9.97173106518E-01	-1.32834000087E+02	-1.00018248504E+00	-1.32954437849E+02	-1.45662261254E+01	-4.88327035586E+01
5.36000000000E+08	-1.44637157079E+01	-4.44907894113E+01	-1.00323154394E+00	-1.33013429349E+02	-1.00527714819E+00	-1.33123855116E+02	-1.45769354975E+01	-4.91317934835E+01
5.36600000000E+08	-1.44682886559E+01	-4.47187384412E+01	-1.00695706461E+00	-1.33206013058E+02	-1.01316591352E+00	-1.33292307419E+02	-1.45932989668E+01	-4.94378579430E+01
5.37200000000E+08	-1.44717135307E+01	-4.49806237329E+01	-1.01285799706E+00	-1.33402265048E+02	-1.01883328129E+00	-1.33474698597E+02	-1.46095284350E+01	-4.97306868595E+01
5.37800000000E+08	-1.44738123044E+01	-4.52508783369E+01	-1.01673458561E+00	-1.33584784979E+02	-1.02526036997E+00	-1.33651046779E+02	-1.46211329609E+01	-5.00055705744E+01
5.38400000000E+08	-1.44779199464E+01	-4.55188276999E+01	-1.02352023372E+00	-1.33776723588E+02	-1.02967308177E+00	-1.33828990062E+02	-1.46412504174E+01	-5.03086447820E+01
5.39000000000E+08	-1.44835305232E+01	-4.58676125731E+01	-1.02870492225E+00	-1.33949840471E+02	-1.03759987258E+00	-1.33988402440E+02	-1.46553389333E+01	-5.05374675034E+01
5.39600000000E+08	-1.44972776664E+01	-4.61870792600E+01	-1.03974479943E+00	-1.34127801656E+02	-1.04359246169E+00	-1.34187552392E+02	-1.46714037424E+01	-5.08347461561E+01
5.40200000000E+08	-1.45121959359E+01	-4.65287148191E+01	-1.04731330807E+00	-1.34305291527E+02	-1.04861853237E+00	-1.34342663594E+02	-1.46807713321E+01	-5.10872392152E+01
5.40800000000E+08	-1.45342212661E+01	-4.68370633579E+01	-1.05448412458E+00	-1.34480340220E+02	-1.05696267419E+00	-1.34526015875E+02	-1.46957697135E+01	-5.13931426907E+01
5.41400000000E+08	-1.45559929992E+01	-4.71444224880E+01	-1.06283427044E+00	-1.34631924513E+02	-1.06326886234E+00	-1.34688535678E+02	-1.47108226260E+01	-5.16869537882E+01
5.42000000000E+08	-1.45838520396E+01	-4.74206347419E+01	-1.06834253964E+00	-1.34805445777E+02	-1.07104431261E+00	-1.34866339422E+02	-1.47284007231E+01	-5.20327631270E+01
5.42600000000E+08	-1.46129919476E+01	-4.76893636484E+01	-1.07779542448E+00	-1.34965514238E+02	-1.07659941649E+00	-1.35022471230E+02	-1.47514846972E+01	-5.23823354008E+01
5.43200000000E+08	-1.46426348994E+01	-4.79169459383E+01	-1.08264112361E+00	-1.35117039941E+02	-1.08400117491E+00	-1.35168186947E+02	-1.47887700861E+01	-5.27057413730E+01
5.43800000000E+08	-1.46682632302E+01	-4.81390653843E+01	-1.08985675481E+00	-1.35255619507E+02	-1.08905538787E+00	-1.35325264321E+02	-1.48257885658E+01	-5.29698951794E+01
5.44400000000E+08	-1.46970995665E+01	-4.83414880021E+01	-1.09090017017E+00	-1.35434186697E+02	-1.09637126394E+00	-1.35483166554E+02	-1.48578526420E+01	-5.31786896891E+01
5.45000000000E+08	-1.47204649856E+01	-4.85333996978E+01	-1.09182299492E+00	-1.35602310006E+02	-1.09781744458E+00	-1.35640804808E+02	-1.48881627932E+01	-5.33865587549E+01
5.45600000000E+08	-1.47405551175E+01	-4.87474063053E+01	-1.09753702353E+00	-1.35764982614E+02	-1.10046984319E+00	-1.35812144761E+02	-1.49152661134E+01	-5.35953128507E+01
5.46200000000E+08	-1.47599853787E+01	-4.89533575339E+01	-1.10199346040E+00	-1.35923251178E+02	-1.10667817410E+00	-1.35954481369E+02	-1.49441159055E+01	-5.37843512352E+01
5.46800000000E+08	-1.47853726562E+01	-4.91608140363E+01	-1.10667814215E+00	-1.36091097492E+02	-1.10760093136E+00	-1.36134534477E+02	-1.49709425528E+01	-5.39758863453E+01
5.47400000000E+08	-1.48062741592E+01	-4.93827036807E+01	-1.10929576907E+00	-1.36262062326E+02	-1.11055246488E+00	-1.36312698034E+02	-1.49988609301E+01	-5.41570541884E+01
5.48000000000E+08	-1.48238292741E+01	-4.96096685286E+01	-1.11474189725E+00	-1.36437702897E+02	-1.11480816714E+00	-1.36495256351E+02	-1.50201232083E+01	-5.43500095863E+01
5.48600000000E+08	-1.48453091947E+01	-4.98641063114E+01	-1.11881643940E+00	-1.36616182341E+02	-1.12145437713E+00	-1.36660575382E+02	-1.50426214897E+01	-5.46037868840E+01
5.49200000000E+08	-1.48720552204E+01	-5.01174469597E+01	-1.12271566029E+00	-1.36768289684E+02	-1.12873477325E+00	-1.36834674296E+02	-1.50683384211E+01	-5.48283593647E+01
5.49800000000E+08	-1.49110281627E+01	-5.04104306903E+01	-1.12878696609E+00	-1.36935448550E+02	-1.13431556848E+00	-1.37001460823E+02	-1.51057385146E+01	-5.50910353547E+01
5.50400000000E+08	-1.49499592344E+01	-5.06114235041E+01	-1.13021529541E+00	-1.37081569172E+02	-1.13857714922E+00	-1.37129585453E+02	-1.51457223477E+01	-5.52573269307E+01
5.51000000000E+08	-1.49943883011E+01	-5.07748963418E+01	-1.13084853647E+00	-1.37227090906E+02	-1.14056850807E+00	-1.37285435314E+02	-1.51862841002E+01	-5.53508896681E+01
5.51600000000E+08	-1.50368710055E+01	-5.08556055818E+01	-1.13079038843E+00	-1.37402826095E+02	-1.14128248169E+00	-1.37439328749E+02	-1.52195631455E+01	-5.53808358274E+01
5.52200000000E+08	-1.50744097831E+01	-5.08551848474E+01	-1.13150235449E+00	-1.37581497222E+02	-1.13620873522E+00	-1.37597319729E+02	-1.52322634198E+01	-5.53936113912E+01
5.52800000000E+08	-1.50979298838E+01	-5.08295083804E+01	-1.13075060373E+00	-1.37758794272E+02	-1.13698454061E+00	-1.37803540983E+02	-1.52438414493E+01	-5.54209920995E+01
5.53400000000E+08	-1.51102337588E+01	-5.07969269555E+01	-1.13162690783E+00	-1.37961522062E+02	-1.13561820211E+00	-1.37994082655E+02	-1.52465874262E+01	-5.55266149685E+01
5.54000000000E+08	-1.51077661855E+01	-5.08090415188E+01	-1.13090725212E+00	-1.38166766555E+02	-1.13444679639E+00	-1.38193749504E+02	-1.52449857690E+01	-5.56636211081E+01
5.54600000000E+08	-1.50961293703E+01	-5.08980929639E+01	-1.13179978508E+00	-1.38383607705E+02	-1.13614684794E+00	-1.38419588733E+02	-1.52448846701E+01	-5.58992909905E+01
5.55200000000E+08	-1.50827771428E+01	-5.10285573127E+01	-1.13613764087E+00	-1.38604488504E+02	-1.14615246948E+00	-1.38629276044E+02	-1.52473210431E+01	-5.61477079818E+01
5.55800000000E+08	-1.50671323516E+01	-5.12313156683E+01	-1.14244162322E+00	-1.38802314411E+02	-1.15157602549E+00	-1.38826047371E+02	-1.52545809395E+01	-5.64204851776E+01
5.56400000000E+08	-1.50552389577E+01	-5.14922443375E+01	-1.14628739450E+00	-1.39027754393E+02	-1.15711276076E+00	-1.39019996753E+02	-1.52706891572E+01	-5.67461626869E+01
5.57000000000E+08	-1.50490904970E+01	-5.18068154055E+01	-1.15588286865E+00	-1.39218983903E+02	-1.16667346014E+00	-1.39201070435E+02	-1.52907037005E+01	-5.70553499755E+01
5.57600000000E+08	-1.50490248210E+01	-5.21952823369E+01	-1.16441038681E+00	-1.39423044444E+02	-1.17303730777E+00	-1.39351524554E+02	-1.53207708823E+01	-5.73471123493E+01
5.58200000000E+08	-1.50628387822E+01	-5.25683346592E+01	-1.17657169202E+00	-1.39618755658E+02	-1.17981481115E+00	-1.39541706430E+02	-1.53583063946E+01	-5.75665740087E+01
5.58800000000E+08	-1.50884595505E+01	-5.29818443768E+01	-1.18441188851E+00	-1.39778186415E+02	-1.18355125956E+00	-1.39713918766E+02	-1.53914078208E+01	-5.77685539489E+01
5.59400000000E+08	-1.51238954624E+01	-5.32811972391E+01	-1.19247934772E+00	-1.39940131233E+02	-1.18705708377E+00	-1.39887520942E+02	-1.54270633827E+01	-5.79129218637E+01
5.60000000000E+08	-1.51689526674E+01	-5.35787763472E+01	-1.19649736106E+00	-1.40092959925E+02	-1.18977642593E+00	-1.40073186883E+02	-1.54616822847E+01	-5.80452303135E+01
5.60600000000E+08	-1.52113604613E+01	-5.37129873469E+01	-1.20084401390E+00	-1.40249171758E+02	-1.19092146835E+00	-1.40237638971E+02	-1.54891185364E+01	-5.81081426039E+01
5.61200000000E+08	-1.52405747628E+01	-5.38045133029E+01	-1.20030184676E+00	-1.40420045214E+02	-1.19141118008E+00	-1.40418739662E+02	-1.55107543552E+01	-5.81667904325E+01
5.61800000000E+08	-1.52642747039E+01	-5.38667342180E+01	-1.20040237742E+00	-1.40598715189E+02	-1.19244651025E+00	-1.40616444527E+02	-1.55218733706E+01	-5.81933434500E+01
5.62400000000E+08	-1.52770305752E+01	-5.39436561805E+01	-1.20167255062E+00	-1.40796587674E+02	-1.19521228041E+00	-1.40835861374E+02	-1.55178294386E+01	-5.83083050968E+01
5.63000000000E+08	-1.52823622494E+01	-5.40875526029E+01	-1.20308622737E+00	-1.41015633136E+02	-1.19525243818E+00	-1.41049445739E+02	-1.55162134605E+01	-5.84320941875E+01
5.63600000000E+08	-1.52824273222E+01	-5.42390344595E+01	-1.20922333658E+00	-1.41221646844E+02	-1.20040822429E+00	-1.41264912314E+02	-1.55108196486E+01	-5.86216052164E+01
5.64200000000E+08	-1.52851834335E+01	-5.43954807413E+01	-1.21250130945E+00	-1.41424095626E+02	-1.20647316850E+00	-1.41485147750E+02	-1.55051736315E+01	-5.88318583332E+01
5.64800000000E+08	-1.52813569994E+01	-5.46123641295E+01	-1.21774586152E+00	-1.41643130170E+02	-1.21419389518E+00	-1.41702266972E+02	-1.55072702616E+01	-5.91246468660E+01
5.65400000000E+08	-1.52866184479E+01	-5.49142479151E+01	-1.22632063541E+00	-1.41858516443E+02	-1.22097672842E+00	-1.41909356619E+02	-1.55156277015E+01	-5.94204934738E+01
5.66000000000E+08	-1.52925693424E+01	-5.52053034227E+01	-1.23412426943E+00	-1.42045247306E+02	-1.22941575610E+00	-1.42114027277E+02	-1.55299221691E+01	-5.97146336368E+01
5.66600000000E+08	-1.53107973056E+01	-5.55003295183E+01	-1.24103591965E+00	-1.42240884018E+02	-1.23795729976E+00	-1.42306245089E+02	-1.55406047661E+01	-5.99974016778E+01
5.67200000000E+08	-1.53281230009E+01	-5.57312425467E+01	-1.24664269802E+00	-1.42431329663E+02	-1.24394468582E+00	-1.42513626054E+02	-1.55562069933E+01	-6.02582960131E+01
5.67800000000E+08	-1.53443557253E+01	-5.59672142968E+01	-1.25218505845E+00	-1.42627409351E+02	-1.25566396378E+00	-1.42711474205E+02	-1.55756243670E+01	-6.05639400149E+01
5.68400000000E+08	-1.53639521622E+01	-5.61631195055E+01	-1.26017668079E+00	-1.42827691415E+02	-1.26074374191E+00	-1.42886367919E+02	-1.55985623958E+01	-6.08369496455E+01
