# Hz S DB R 50
! CMT, S5065, 24347010, 24.3.4/3
! Date: 10/15/2024 11:50:03 AM
! Data: Format (Calibration Info)
! Freq	S11:dB/Ang(F2)	S21:dB/Ang(F2)	S12:dB/Ang(F2)	S22:dB/Ang(F2)
5.00000000000E+08	-1.41947068686E+01	-3.36592614973E+01	-8.09606686929E-01	-1.22528915650E+02	-8.08090904116E-01	-1.22587659957E+02	-1.42688987857E+01	-3.65698307348E+01
5.00600000000E+08	-1.42130016103E+01	-3.38347105732E+01	-8.09679573226E-01	-1.22682745840E+02	-8.11235629206E-01	-1.22746721103E+02	-1.42893017170E+01	-3.67914709039E+01
5.01200000000E+08	-1.42235296795E+01	-3.39925868555E+01	-8.16418544287E-01	-1.22843035139E+02	-8.15837604269E-01	-1.22897300108E+02	-1.43011373807E+01	-3.69762477082E+01
5.01800000000E+08	-1.42345613882E+01	-3.41271458220E+01	-8.16510594028E-01	-1.22998665046E+02	-8.17516932113E-01	-1.23049326523E+02	-1.43135447095E+01	-3.71732925464E+01
5.02400000000E+08	-1.42423345754E+01	-3.42706570252E+01	-8.18017808007E-01	-1.23170451665E+02	-8.17132873889E-01	-1.23221675639E+02	-1.43279703037E+01	-3.73492413382E+01
5.03000000000E+08	-1.42503204335E+01	-3.44134396536E+01	-8.18693272630E-01	-1.23333110398E+02	-8.20249052514E-01	-1.23364936499E+02	-1.43350231810E+01	-3.75014306177E+01
5.03600000000E+08	-1.42574408993E+01	-3.45386376754E+01	-8.22136668723E-01	-1.23489889330E+02	-8.23330735554E-01	-1.23537699148E+02	-1.43505989612E+01	-3.76768918333E+01
5.04200000000E+08	-1.42611415728E+01	-3.47130728556E+01	-8.22820804734E-01	-1.23661410700E+02	-8.24424996979E-01	-1.23698080526E+02	-1.43613077212E+01	-3.78672206772E+01
5.04800000000E+08	-1.42673290961E+01	-3.48824478383E+01	-8.27389471586E-01	-1.23807031486E+02	-8.25216060156E-01	-1.23868587099E+02	-1.43666259830E+01	-3.80262533054E+01
5.05400000000E+08	-1.42762096016E+01	-3.50767187553E+01	-8.26983399992E-01	-1.23971401990E+02	-8.27625323614E-01	-1.24020668436E+02	-1.43836261651E+01	-3.81807300978E+01
5.06000000000E+08	-1.42816637419E+01	-3.52167768512E+01	-8.29098125682E-01	-1.24148517434E+02	-8.27948088342E-01	-1.24201245185E+02	-1.43904039583E+01	-3.83081483160E+01
5.06600000000E+08	-1.42930766097E+01	-3.53705669450E+01	-8.30375746710E-01	-1.24327306989E+02	-8.32316114254E-01	-1.24369020528E+02	-1.43968167539E+01	-3.84558353963E+01
5.07200000000E+08	-1.43016160329E+01	-3.55327055486E+01	-8.32942163529E-01	-1.24492756076E+02	-8.32981901950E-01	-1.24528762040E+02	-1.44008017197E+01	-3.86237473040E+01
5.07800000000E+08	-1.43118146383E+01	-3.56528173721E+01	-8.35132826321E-01	-1.24627500420E+02	-8.34535667105E-01	-1.24697454221E+02	-1.44112177471E+01	-3.87710086775E+01
5.08400000000E+08	-1.43234687684E+01	-3.57668319164E+01	-8.37026654187E-01	-1.24829878327E+02	-8.36401629235E-01	-1.24868621389E+02	-1.44166873386E+01	-3.89200031846E+01
5.09000000000E+08	-1.43277974081E+01	-3.58844551764E+01	-8.36938813195E-01	-1.24970228096E+02	-8.36721469611E-01	-1.25022914455E+02	-1.44263027481E+01	-3.90747374809E+01
5.09600000000E+08	-1.43370491728E+01	-3.59925447153E+01	-8.37184008725E-01	-1.25133435721E+02	-8.38600402058E-01	-1.25184554908E+02	-1.44323608427E+01	-3.91853050919E+01
5.10200000000E+08	-1.43399456615E+01	-3.60663695795E+01	-8.38310524020E-01	-1.25330605001E+02	-8.37918925779E-01	-1.25363780713E+02	-1.44362081701E+01	-3.93141501367E+01
5.10800000000E+08	-1.43409807611E+01	-3.61551250476E+01	-8.38290514750E-01	-1.25488851211E+02	-8.40364916425E-01	-1.25534757384E+02	-1.44341403912E+01	-3.94364156132E+01
5.11400000000E+08	-1.43371066644E+01	-3.62570653231E+01	-8.38421406971E-01	-1.25678598088E+02	-8.37722148768E-01	-1.25721560211E+02	-1.44297828412E+01	-3.95331693748E+01
5.12000000000E+08	-1.43329471376E+01	-3.63517076677E+01	-8.41541788929E-01	-1.25869092872E+02	-8.39892906431E-01	-1.25918788764E+02	-1.44240720711E+01	-3.96866574130E+01
5.12600000000E+08	-1.43261571040E+01	-3.64923929001E+01	-8.43001652594E-01	-1.26043666578E+02	-8.39612057482E-01	-1.26097922204E+02	-1.44196360240E+01	-3.98556030949E+01
5.13200000000E+08	-1.43190231563E+01	-3.66099687482E+01	-8.43609651110E-01	-1.26225939491E+02	-8.42973583457E-01	-1.26282529180E+02	-1.44140587914E+01	-4.00457374968E+01
5.13800000000E+08	-1.43048094823E+01	-3.67705720370E+01	-8.46374123816E-01	-1.26431092943E+02	-8.44715471894E-01	-1.26463933812E+02	-1.44081392575E+01	-4.02222623200E+01
5.14400000000E+08	-1.42963153996E+01	-3.69417343966E+01	-8.48856416955E-01	-1.26619042757E+02	-8.48362568214E-01	-1.26682299732E+02	-1.44020350920E+01	-4.04083510096E+01
5.15000000000E+08	-1.42906551010E+01	-3.71539372719E+01	-8.51061205556E-01	-1.26797388701E+02	-8.51667996505E-01	-1.26852860222E+02	-1.43970709951E+01	-4.06324341240E+01
5.15600000000E+08	-1.42861145793E+01	-3.73318608001E+01	-8.57761965262E-01	-1.26996599961E+02	-8.52985823305E-01	-1.27038629083E+02	-1.43952128683E+01	-4.08562904922E+01
5.16200000000E+08	-1.42852391018E+01	-3.75609920278E+01	-8.59163628817E-01	-1.27189609917E+02	-8.59199788424E-01	-1.27249725903E+02	-1.43925214567E+01	-4.10703014560E+01
5.16800000000E+08	-1.42799982192E+01	-3.77572490960E+01	-8.62491783079E-01	-1.27381548506E+02	-8.64115119335E-01	-1.27423594153E+02	-1.43836084718E+01	-4.12814858909E+01
5.17400000000E+08	-1.42704595959E+01	-3.79764588982E+01	-8.66719384048E-01	-1.27545451731E+02	-8.68703692235E-01	-1.27608583591E+02	-1.43814607506E+01	-4.15180232758E+01
5.18000000000E+08	-1.42702590743E+01	-3.82269721371E+01	-8.71722416487E-01	-1.27747481178E+02	-8.72217957782E-01	-1.27791309853E+02	-1.43748133747E+01	-4.17656850337E+01
5.18600000000E+08	-1.42707693625E+01	-3.84352199037E+01	-8.78011031388E-01	-1.27931386716E+02	-8.76739604693E-01	-1.27968593820E+02	-1.43711615959E+01	-4.19683791952E+01
5.19200000000E+08	-1.42688972079E+01	-3.86891876011E+01	-8.81306981186E-01	-1.28131717957E+02	-8.83031903195E-01	-1.28178821257E+02	-1.43648679719E+01	-4.22644979392E+01
5.19800000000E+08	-1.42646704076E+01	-3.89159878303E+01	-8.87901462319E-01	-1.28297241281E+02	-8.88116831429E-01	-1.28353295353E+02	-1.43564916204E+01	-4.25514483095E+01
5.20400000000E+08	-1.42685444368E+01	-3.91936768359E+01	-8.96770495850E-01	-1.28483613222E+02	-8.95314420899E-01	-1.28535800018E+02	-1.43504748989E+01	-4.28799498701E+01
5.21000000000E+08	-1.42689565430E+01	-3.94894754045E+01	-9.02704189012E-01	-1.28649889959E+02	-9.02112386742E-01	-1.28702626559E+02	-1.43559754081E+01	-4.32485049747E+01
5.21600000000E+08	-1.42783295981E+01	-3.97717760714E+01	-9.11414657746E-01	-1.28824100539E+02	-9.09016174721E-01	-1.28882894116E+02	-1.43662352182E+01	-4.36067279987E+01
5.22200000000E+08	-1.42965681534E+01	-4.00857609973E+01	-9.16288569920E-01	-1.28982295564E+02	-9.13855749149E-01	-1.29043008581E+02	-1.43826439393E+01	-4.39719038692E+01
5.22800000000E+08	-1.43144223406E+01	-4.03194517799E+01	-9.23853884378E-01	-1.29130805063E+02	-9.22780440787E-01	-1.29180655028E+02	-1.44126947775E+01	-4.42702403696E+01
5.23400000000E+08	-1.43366513055E+01	-4.05462661891E+01	-9.25593867286E-01	-1.29292364035E+02	-9.28773698793E-01	-1.29349277983E+02	-1.44392051217E+01	-4.45314754255E+01
5.24000000000E+08	-1.43568163279E+01	-4.06881202194E+01	-9.29805593398E-01	-1.29433650723E+02	-9.31644714826E-01	-1.29482369460E+02	-1.44662798361E+01	-4.46876967234E+01
5.24600000000E+08	-1.43717706124E+01	-4.08402125507E+01	-9.28921073575E-01	-1.29588087784E+02	-9.30694185526E-01	-1.29633638987E+02	-1.44868176606E+01	-4.48457948733E+01
5.25200000000E+08	-1.43858878435E+01	-4.09706136803E+01	-9.32118478175E-01	-1.29768671540E+02	-9.31556611867E-01	-1.29814308947E+02	-1.45000411406E+01	-4.49626801860E+01
5.25800000000E+08	-1.43887808795E+01	-4.11093588198E+01	-9.32698802396E-01	-1.29945919780E+02	-9.33596306577E-01	-1.29984575632E+02	-1.45093490285E+01	-4.51016705614E+01
5.26400000000E+08	-1.43908506206E+01	-4.12630022874E+01	-9.34531937764E-01	-1.30123927991E+02	-9.35895544654E-01	-1.30179648202E+02	-1.45064279981E+01	-4.52932458357E+01
5.27000000000E+08	-1.43942851526E+01	-4.14981345036E+01	-9.39505757060E-01	-1.30319937785E+02	-9.38842795681E-01	-1.30375423241E+02	-1.45049520893E+01	-4.54836301822E+01
5.27600000000E+08	-1.44027764139E+01	-4.17057219445E+01	-9.44293385947E-01	-1.30486181861E+02	-9.42263627294E-01	-1.30535003477E+02	-1.45145775530E+01	-4.57505973258E+01
5.28200000000E+08	-1.44172012534E+01	-4.19139327398E+01	-9.46972694900E-01	-1.30658730978E+02	-9.47474113759E-01	-1.30707693114E+02	-1.45244999735E+01	-4.60033804889E+01
5.28800000000E+08	-1.44317683528E+01	-4.20687389312E+01	-9.48740578286E-01	-1.30824595905E+02	-9.49218576084E-01	-1.30866834463E+02	-1.45401424249E+01	-4.61587927783E+01
5.29400000000E+08	-1.44366621939E+01	-4.22124968854E+01	-9.53024500276E-01	-1.31009662188E+02	-9.52106607967E-01	-1.31054878470E+02	-1.45532740588E+01	-4.63683492345E+01
5.30000000000E+08	-1.44434817474E+01	-4.23355327434E+01	-9.54453397005E-01	-1.31190094997E+02	-9.52152982934E-01	-1.31254545436E+02	-1.45600894590E+01	-4.65051097646E+01
5.30600000000E+08	-1.44458031422E+01	-4.24599138128E+01	-9.56280136338E-01	-1.31384365960E+02	-9.57179827716E-01	-1.31425724845E+02	-1.45670158511E+01	-4.66507264432E+01
5.31200000000E+08	-1.44453978249E+01	-4.26285852467E+01	-9.58965319491E-01	-1.31563792180E+02	-9.57390680107E-01	-1.31634108916E+02	-1.45585188935E+01	-4.68070248857E+01
5.31800000000E+08	-1.44399102709E+01	-4.28317453341E+01	-9.63739620392E-01	-1.31780715076E+02	-9.63897862641E-01	-1.31831201428E+02	-1.45549802177E+01	-4.70299099076E+01
5.32400000000E+08	-1.44335928497E+01	-4.30659088638E+01	-9.68226523893E-01	-1.31975269517E+02	-9.65296472844E-01	-1.32024954626E+02	-1.45406828394E+01	-4.72723440938E+01
5.33000000000E+08	-1.44311028692E+01	-4.33151709178E+01	-9.73618237038E-01	-1.32159819481E+02	-9.74087565156E-01	-1.32205465787E+02	-1.45370399285E+01	-4.75772289149E+01
5.33600000000E+08	-1.44422824153E+01	-4.35608930894E+01	-9.81052575424E-01	-1.32339945654E+02	-9.82254002794E-01	-1.32387526269E+02	-1.45390709286E+01	-4.78907751310E+01
5.34200000000E+08	-1.44483128845E+01	-4.38289421126E+01	-9.88747194444E-01	-1.32512593403E+02	-9.87840110351E-01	-1.32562237619E+02	-1.45539659736E+01	-4.82068694458E+01
5.34800000000E+08	-1.44590255822E+01	-4.40601682459E+01	-9.92781488922E-01	-1.32687546205E+02	-9.90731878182E-01	-1.32755469608E+02	-1.45595784069E+01	-4.85093538873E+01
5.35400000000E+08	-1.44684708832E+01	-4.42605424684E+01	-9.99446901599E-01	-1.32862528853E+02	-9.97556911382E-01	-1.32918832539E+02	-1.45733954583E+01	-4.87654116492E+01
5.36000000000E+08	-1.44741849419E+01	-4.44917563081E+01	-1.00270628313E+00	-1.33038130067E+02	-1.00224770595E+00	-1.33102266988E+02	-1.45820486875E+01	-4.90043979956E+01
5.36600000000E+08	-1.44778289224E+01	-4.46904537331E+01	-1.00763852683E+00	-1.33230783820E+02	-1.00827113492E+00	-1.33280011185E+02	-1.45938327964E+01	-4.92733027488E+01
5.37200000000E+08	-1.44798075875E+01	-4.49028195892E+01	-1.01299870954E+00	-1.33425285450E+02	-1.01257527129E+00	-1.33468974416E+02	-1.45988733780E+01	-4.95277424661E+01
5.37800000000E+08	-1.44795203575E+01	-4.51698256571E+01	-1.01600037338E+00	-1.33604475264E+02	-1.01772595529E+00	-1.33658326984E+02	-1.46037256466E+01	-4.97878681134E+01
5.38400000000E+08	-1.44838451435E+01	-4.54359870015E+01	-1.02501719175E+00	-1.33800626728E+02	-1.02352102277E+00	-1.33845877576E+02	-1.46126844106E+01	-5.01188477136E+01
5.39000000000E+08	-1.44889463851E+01	-4.57467905477E+01	-1.03102996488E+00	-1.33969249340E+02	-1.03143011061E+00	-1.34038320693E+02	-1.46215177548E+01	-5.04113538791E+01
5.39600000000E+08	-1.44970882882E+01	-4.60347709694E+01	-1.03932879646E+00	-1.34155153260E+02	-1.03811585420E+00	-1.34222368348E+02	-1.46365747576E+01	-5.07436411601E+01
5.40200000000E+08	-1.45104311210E+01	-4.63560984179E+01	-1.04507504789E+00	-1.34323090721E+02	-1.04527004146E+00	-1.34392548884E+02	-1.46520700198E+01	-5.10745141675E+01
5.40800000000E+08	-1.45286401926E+01	-4.66605745361E+01	-1.05193468127E+00	-1.34510652395E+02	-1.05482426780E+00	-1.34552325010E+02	-1.46713988793E+01	-5.13839078884E+01
5.41400000000E+08	-1.45462091335E+01	-4.69561958903E+01	-1.06110218164E+00	-1.34660652840E+02	-1.05859212874E+00	-1.34719263281E+02	-1.46990213495E+01	-5.16815872978E+01
5.42000000000E+08	-1.45678399285E+01	-4.71805450940E+01	-1.06434452855E+00	-1.34833693135E+02	-1.06737643879E+00	-1.34880327211E+02	-1.47230009942E+01	-5.19437115246E+01
5.42600000000E+08	-1.45871747969E+01	-4.74129497925E+01	-1.07040149724E+00	-1.35008938945E+02	-1.07018913472E+00	-1.35061049790E+02	-1.47414445547E+01	-5.21995544532E+01
5.43200000000E+08	-1.46011437893E+01	-4.76507653995E+01	-1.07539236220E+00	-1.35175353841E+02	-1.07493036362E+00	-1.35231127712E+02	-1.47637607944E+01	-5.24429667751E+01
5.43800000000E+08	-1.46096664280E+01	-4.79041692008E+01	-1.08241112346E+00	-1.35348930884E+02	-1.08020101637E+00	-1.35392353815E+02	-1.47827106786E+01	-5.27170068356E+01
5.44400000000E+08	-1.46245496975E+01	-4.81773819664E+01	-1.08830833755E+00	-1.35532128274E+02	-1.08933665417E+00	-1.35583725242E+02	-1.47959964505E+01	-5.29618892264E+01
5.45000000000E+08	-1.46428610383E+01	-4.84691588370E+01	-1.09370608871E+00	-1.35714669008E+02	-1.09595990876E+00	-1.35759666790E+02	-1.48120864213E+01	-5.32901783123E+01
5.45600000000E+08	-1.46620512950E+01	-4.87641169183E+01	-1.10186581446E+00	-1.35879024606E+02	-1.10204250501E+00	-1.35935342215E+02	-1.48330539745E+01	-5.35908980760E+01
5.46200000000E+08	-1.46817960934E+01	-4.90462090618E+01	-1.11038696041E+00	-1.36039397841E+02	-1.11089491739E+00	-1.36076273404E+02	-1.48619029381E+01	-5.39192091925E+01
5.46800000000E+08	-1.47068086599E+01	-4.93025934538E+01	-1.11342630969E+00	-1.36203484541E+02	-1.11478501293E+00	-1.36234495523E+02	-1.48973650539E+01	-5.42034419851E+01
5.47400000000E+08	-1.47258361818E+01	-4.96041455250E+01	-1.12033296069E+00	-1.36379426493E+02	-1.12077865181E+00	-1.36408458844E+02	-1.49339067059E+01	-5.44936745299E+01
5.48000000000E+08	-1.47456065946E+01	-4.98915546035E+01	-1.12825939233E+00	-1.36531296698E+02	-1.12738670558E+00	-1.36564682592E+02	-1.49663550166E+01	-5.47130941300E+01
5.48600000000E+08	-1.47717602693E+01	-5.02344425975E+01	-1.13344660656E+00	-1.36686340855E+02	-1.13314060911E+00	-1.36736723160E+02	-1.50035615518E+01	-5.50024896696E+01
5.49200000000E+08	-1.48075614864E+01	-5.05359114059E+01	-1.14010088292E+00	-1.36844847785E+02	-1.14058965515E+00	-1.36887393407E+02	-1.50421804641E+01	-5.51946832052E+01
5.49800000000E+08	-1.48501397451E+01	-5.08706403071E+01	-1.14422878810E+00	-1.36992728728E+02	-1.14323640499E+00	-1.37030705841E+02	-1.50821814426E+01	-5.54254524999E+01
5.50400000000E+08	-1.48986640516E+01	-5.10848690159E+01	-1.14932083905E+00	-1.37121545489E+02	-1.14738532208E+00	-1.37185651488E+02	-1.51251788806E+01	-5.55810016091E+01
5.51000000000E+08	-1.49487550252E+01	-5.12758000325E+01	-1.15058289929E+00	-1.37281412137E+02	-1.14847747967E+00	-1.37326239514E+02	-1.51618963757E+01	-5.56576308454E+01
5.51600000000E+08	-1.49932336835E+01	-5.13886305830E+01	-1.14940904439E+00	-1.37430418868E+02	-1.15085299182E+00	-1.37493113807E+02	-1.51985044034E+01	-5.57106854134E+01
5.52200000000E+08	-1.50307959782E+01	-5.14491240095E+01	-1.14851821693E+00	-1.37622563153E+02	-1.14769065721E+00	-1.37644452190E+02	-1.52149788997E+01	-5.57891471469E+01
5.52800000000E+08	-1.50560425871E+01	-5.14724879210E+01	-1.14719856651E+00	-1.37780127747E+02	-1.14909224331E+00	-1.37831802434E+02	-1.52314011762E+01	-5.58197296471E+01
5.53400000000E+08	-1.50777465384E+01	-5.15356203053E+01	-1.15010929611E+00	-1.37978749010E+02	-1.15103178679E+00	-1.38017464329E+02	-1.52458144850E+01	-5.59726592619E+01
5.54000000000E+08	-1.50949755089E+01	-5.16257330863E+01	-1.15114213937E+00	-1.38149354200E+02	-1.15026759769E+00	-1.38211148799E+02	-1.52591198544E+01	-5.60972787201E+01
5.54600000000E+08	-1.51020650544E+01	-5.17144752680E+01	-1.15192273864E+00	-1.38338621976E+02	-1.15088728752E+00	-1.38410601200E+02	-1.52781889149E+01	-5.62556191087E+01
5.55200000000E+08	-1.51108460055E+01	-5.17981346589E+01	-1.15569758535E+00	-1.38554732859E+02	-1.15591360919E+00	-1.38594877998E+02	-1.52853864539E+01	-5.63885810745E+01
5.55800000000E+08	-1.51055935767E+01	-5.19563998956E+01	-1.15988574328E+00	-1.38752483561E+02	-1.15950230737E+00	-1.38800786366E+02	-1.52898775402E+01	-5.65475679316E+01
5.56400000000E+08	-1.51077056730E+01	-5.21630979415E+01	-1.16484246053E+00	-1.38968834613E+02	-1.16374537451E+00	-1.38997685592E+02	-1.52959174562E+01	-5.67358475993E+01
5.57000000000E+08	-1.51055510440E+01	-5.24209379209E+01	-1.17007656288E+00	-1.39163022835E+02	-1.17022604576E+00	-1.39211295168E+02	-1.52948396380E+01	-5.69906438297E+01
5.57600000000E+08	-1.51105677327E+01	-5.27405096985E+01	-1.17857147946E+00	-1.39353229187E+02	-1.17678923509E+00	-1.39399676549E+02	-1.52998506529E+01	-5.72828899670E+01
5.58200000000E+08	-1.51253858964E+01	-5.30770340498E+01	-1.18791728611E+00	-1.39555933074E+02	-1.18737212173E+00	-1.39587843074E+02	-1.53184760819E+01	-5.75975606471E+01
5.58800000000E+08	-1.51559571621E+01	-5.34760657378E+01	-1.19813463615E+00	-1.39725130099E+02	-1.19530321650E+00	-1.39770801663E+02	-1.53425844950E+01	-5.80090287078E+01
5.59400000000E+08	-1.52022444033E+01	-5.37598648247E+01	-1.20233257554E+00	-1.39867772292E+02	-1.20328738766E+00	-1.39910548455E+02	-1.53872392878E+01	-5.83132572806E+01
5.60000000000E+08	-1.52611796767E+01	-5.39573408304E+01	-1.20576312531E+00	-1.40004847980E+02	-1.20737334680E+00	-1.40074876838E+02	-1.54447436036E+01	-5.85152523207E+01
5.60600000000E+08	-1.53073806111E+01	-5.39273731724E+01	-1.20473154504E+00	-1.40174333364E+02	-1.20555061038E+00	-1.40213329895E+02	-1.54888184271E+01	-5.85719263049E+01
5.61200000000E+08	-1.53286114796E+01	-5.38821606485E+01	-1.20430104660E+00	-1.40357638071E+02	-1.20348296064E+00	-1.40399728418E+02	-1.55169146932E+01	-5.85410243524E+01
5.61800000000E+08	-1.53301901892E+01	-5.38828372839E+01	-1.20211872314E+00	-1.40550185297E+02	-1.20255273515E+00	-1.40603744525E+02	-1.55322201937E+01	-5.85321059381E+01
5.62400000000E+08	-1.53213340283E+01	-5.39348638173E+01	-1.20262035155E+00	-1.40772824681E+02	-1.20538098576E+00	-1.40828703876E+02	-1.55237669451E+01	-5.86167563367E+01
5.63000000000E+08	-1.53099777214E+01	-5.41288772134E+01	-1.20754611743E+00	-1.40998966954E+02	-1.20653182514E+00	-1.41052741701E+02	-1.55221556064E+01	-5.87988411609E+01
5.63600000000E+08	-1.53012025941E+01	-5.43661880600E+01	-1.21551204428E+00	-1.41209235985E+02	-1.21261011701E+00	-1.41257931523E+02	-1.55180844892E+01	-5.90160506465E+01
5.64200000000E+08	-1.53032433552E+01	-5.46245827990E+01	-1.22158743344E+00	-1.41413262477E+02	-1.22241601140E+00	-1.41468308544E+02	-1.55203224282E+01	-5.92336695106E+01
5.64800000000E+08	-1.52984983069E+01	-5.49019634860E+01	-1.22961362014E+00	-1.41636410040E+02	-1.22865075589E+00	-1.41662121632E+02	-1.55339109287E+01	-5.95058517079E+01
5.65400000000E+08	-1.53078639182E+01	-5.52465434056E+01	-1.23889064709E+00	-1.41826888387E+02	-1.23691096314E+00	-1.41879688969E+02	-1.55449609642E+01	-5.97757958526E+01
5.66000000000E+08	-1.53183671614E+01	-5.56132174253E+01	-1.24550830179E+00	-1.42013150481E+02	-1.24648594118E+00	-1.42068902009E+02	-1.55634995497E+01	-6.00616766612E+01
5.66600000000E+08	-1.53493662825E+01	-5.59625522420E+01	-1.25560979168E+00	-1.42198298866E+02	-1.25379698020E+00	-1.42232891992E+02	-1.55803898284E+01	-6.03646098045E+01
5.67200000000E+08	-1.53803036356E+01	-5.62407609638E+01	-1.26126612960E+00	-1.42368011846E+02	-1.25728418713E+00	-1.42425560953E+02	-1.56030438353E+01	-6.05889065373E+01
5.67800000000E+08	-1.54120298878E+01	-5.64538322017E+01	-1.26570036794E+00	-1.42540547041E+02	-1.26771384931E+00	-1.42605239428E+02	-1.56286584381E+01	-6.08044626327E+01
5.68400000000E+08	-1.54396239023E+01	-5.66099208008E+01	-1.27137198928E+00	-1.42730188447E+02	-1.26835984800E+00	-1.42779099467E+02	-1.56448117883E+01	-6.10071069885E+01
