# Hz S DB R 50
! CMT, S5065, 24347010, 24.3.4/3
! Date: 10/15/2024 12:24:11 PM
! Data: Format (Calibration Info)
! Freq	S11:dB/Ang(F2)	S21:dB/Ang(F2)	S12:dB/Ang(F2)	S22:dB/Ang(F2)
5.00000000000E+08	-1.41880623574E+01	-3.33590492633E+01	-8.01398786412E-01	-1.22500641495E+02	-8.00459477325E-01	-1.22593688503E+02	-1.42583967177E+01	-3.64435599673E+01
5.00600000000E+08	-1.42039697211E+01	-3.35605337605E+01	-8.02558722870E-01	-1.22658634585E+02	-8.01068219065E-01	-1.22731079460E+02	-1.42875222921E+01	-3.66129368522E+01
5.01200000000E+08	-1.42133286519E+01	-3.36917306057E+01	-8.05503910590E-01	-1.22792989991E+02	-8.03851778979E-01	-1.22883766297E+02	-1.43028181568E+01	-3.67286102234E+01
5.01800000000E+08	-1.42241842925E+01	-3.38241255501E+01	-8.05272160824E-01	-1.22967275582E+02	-8.03003977049E-01	-1.23043684263E+02	-1.43165006387E+01	-3.68560457980E+01
5.02400000000E+08	-1.42296010262E+01	-3.39343088145E+01	-8.06447625432E-01	-1.23142329259E+02	-8.03161170445E-01	-1.23215904892E+02	-1.43260220544E+01	-3.69362504286E+01
5.03000000000E+08	-1.42300033738E+01	-3.40435505732E+01	-8.04553381438E-01	-1.23308782369E+02	-8.01836820731E-01	-1.23397998803E+02	-1.43229147441E+01	-3.70149821095E+01
5.03600000000E+08	-1.42288630551E+01	-3.41571697248E+01	-8.07551149542E-01	-1.23469462753E+02	-8.03820515016E-01	-1.23579844778E+02	-1.43237874769E+01	-3.71360281451E+01
5.04200000000E+08	-1.42223065823E+01	-3.43155295021E+01	-8.09298027442E-01	-1.23666319018E+02	-8.05303311505E-01	-1.23760399006E+02	-1.43203502473E+01	-3.72783273994E+01
5.04800000000E+08	-1.42181333470E+01	-3.44856568698E+01	-8.14095511687E-01	-1.23839908976E+02	-8.09488607891E-01	-1.23953128988E+02	-1.43113989097E+01	-3.74629432080E+01
5.05400000000E+08	-1.42159808355E+01	-3.47198506880E+01	-8.14102736028E-01	-1.24019937499E+02	-8.13135079711E-01	-1.24126355709E+02	-1.43065492041E+01	-3.76741542096E+01
5.06000000000E+08	-1.42133640058E+01	-3.49221498432E+01	-8.19329558807E-01	-1.24192207067E+02	-8.17194493813E-01	-1.24307492298E+02	-1.43041841935E+01	-3.78946641735E+01
5.06600000000E+08	-1.42172203516E+01	-3.51168616706E+01	-8.21567835354E-01	-1.24377888424E+02	-8.23455798960E-01	-1.24494954362E+02	-1.43061509247E+01	-3.81540493645E+01
5.07200000000E+08	-1.42236530794E+01	-3.53492813991E+01	-8.27938564595E-01	-1.24552228189E+02	-8.26501348122E-01	-1.24649072025E+02	-1.43085338601E+01	-3.84035149347E+01
5.07800000000E+08	-1.42304285158E+01	-3.55525454724E+01	-8.32183702625E-01	-1.24697522255E+02	-8.28377736462E-01	-1.24808106672E+02	-1.43194382985E+01	-3.85942823442E+01
5.08400000000E+08	-1.42428984650E+01	-3.57196054191E+01	-8.34687396034E-01	-1.24871424310E+02	-8.31922222830E-01	-1.24990472710E+02	-1.43256963404E+01	-3.88058281210E+01
5.09000000000E+08	-1.42505645773E+01	-3.59092698401E+01	-8.35943527191E-01	-1.25014904246E+02	-8.35595814813E-01	-1.25155792166E+02	-1.43352647599E+01	-3.90226095930E+01
5.09600000000E+08	-1.42640425616E+01	-3.60682958104E+01	-8.38514926858E-01	-1.25179498368E+02	-8.37214139450E-01	-1.25321849056E+02	-1.43405546815E+01	-3.92026917291E+01
5.10200000000E+08	-1.42727714425E+01	-3.61839403034E+01	-8.39855647357E-01	-1.25361408167E+02	-8.40451322416E-01	-1.25493381884E+02	-1.43516960726E+01	-3.94118314006E+01
5.10800000000E+08	-1.42759449663E+01	-3.63194306069E+01	-8.40216312230E-01	-1.25538749520E+02	-8.43074828663E-01	-1.25647322956E+02	-1.43582664250E+01	-3.96115315244E+01
5.11400000000E+08	-1.42755276286E+01	-3.64300339430E+01	-8.43630269669E-01	-1.25718391486E+02	-8.46024538319E-01	-1.25827505649E+02	-1.43685296266E+01	-3.97618481954E+01
5.12000000000E+08	-1.42745994213E+01	-3.66056586824E+01	-8.46464719065E-01	-1.25888565640E+02	-8.50030478189E-01	-1.25999871992E+02	-1.43733769190E+01	-3.98986949619E+01
5.12600000000E+08	-1.42738690189E+01	-3.68194486065E+01	-8.48147280969E-01	-1.26074464465E+02	-8.50269624875E-01	-1.26172474769E+02	-1.43787498846E+01	-4.00685198317E+01
5.13200000000E+08	-1.42778197247E+01	-3.70143572818E+01	-8.51619235997E-01	-1.26252548137E+02	-8.52324241214E-01	-1.26341484399E+02	-1.43817229571E+01	-4.02417334211E+01
5.13800000000E+08	-1.42793803322E+01	-3.71996661393E+01	-8.53686846028E-01	-1.26412567467E+02	-8.54017871731E-01	-1.26499283555E+02	-1.43850112354E+01	-4.03957194773E+01
5.14400000000E+08	-1.42902562690E+01	-3.73951671447E+01	-8.57346642773E-01	-1.26599025874E+02	-8.56807396189E-01	-1.26720225904E+02	-1.43857865959E+01	-4.05535584950E+01
5.15000000000E+08	-1.43009997625E+01	-3.75664839318E+01	-8.59822970893E-01	-1.26752481758E+02	-8.58226387731E-01	-1.26877817522E+02	-1.43841379714E+01	-4.07362423125E+01
5.15600000000E+08	-1.43072058303E+01	-3.76760726024E+01	-8.63803001267E-01	-1.26944065302E+02	-8.59977115067E-01	-1.27068446599E+02	-1.43788233949E+01	-4.09146747662E+01
5.16200000000E+08	-1.43136727888E+01	-3.78542011686E+01	-8.64275768603E-01	-1.27130652145E+02	-8.65086701801E-01	-1.27264209512E+02	-1.43765454094E+01	-4.11215959972E+01
5.16800000000E+08	-1.43158775633E+01	-3.79884281262E+01	-8.68375983296E-01	-1.27305841713E+02	-8.70218095626E-01	-1.27440300678E+02	-1.43643336851E+01	-4.13393831091E+01
5.17400000000E+08	-1.43153586817E+01	-3.81498763682E+01	-8.70300186441E-01	-1.27493112266E+02	-8.73918439293E-01	-1.27625374993E+02	-1.43578605957E+01	-4.16028657117E+01
5.18000000000E+08	-1.43186787250E+01	-3.83439161481E+01	-8.72715147285E-01	-1.27683648278E+02	-8.77652679835E-01	-1.27805465781E+02	-1.43536288537E+01	-4.18920145689E+01
5.18600000000E+08	-1.43210170325E+01	-3.85079379870E+01	-8.78667365121E-01	-1.27869756452E+02	-8.82044533113E-01	-1.28000797234E+02	-1.43537949441E+01	-4.21796944074E+01
5.19200000000E+08	-1.43189098506E+01	-3.87067604519E+01	-8.81914530090E-01	-1.28036908945E+02	-8.90330783049E-01	-1.28175653549E+02	-1.43588815673E+01	-4.25059678826E+01
5.19800000000E+08	-1.43194870823E+01	-3.88852597257E+01	-8.88206005173E-01	-1.28220250902E+02	-8.96872321654E-01	-1.28336876328E+02	-1.43685646439E+01	-4.27937894407E+01
5.20400000000E+08	-1.43259853336E+01	-3.91369901690E+01	-8.94149063462E-01	-1.28403462556E+02	-9.02058336750E-01	-1.28500607068E+02	-1.43787748220E+01	-4.30935928813E+01
5.21000000000E+08	-1.43331808396E+01	-3.93320509279E+01	-8.99232984421E-01	-1.28566671877E+02	-9.05707672303E-01	-1.28640881733E+02	-1.43999766576E+01	-4.33760293924E+01
5.21600000000E+08	-1.43432830415E+01	-3.95029722539E+01	-9.02696340088E-01	-1.28741954423E+02	-9.07524451353E-01	-1.28795483678E+02	-1.44181050041E+01	-4.36129084801E+01
5.22200000000E+08	-1.43528431427E+01	-3.96921005199E+01	-9.05374778060E-01	-1.28900626723E+02	-9.08347906602E-01	-1.28973141867E+02	-1.44345445709E+01	-4.38315566985E+01
5.22800000000E+08	-1.43559128140E+01	-3.98410330915E+01	-9.09607737065E-01	-1.29080245465E+02	-9.12268662745E-01	-1.29138498209E+02	-1.44511592714E+01	-4.40112450285E+01
5.23400000000E+08	-1.43604263884E+01	-4.00265946694E+01	-9.11516867697E-01	-1.29259679714E+02	-9.17618984334E-01	-1.29324141010E+02	-1.44637371188E+01	-4.42263896623E+01
5.24000000000E+08	-1.43608962645E+01	-4.01803642883E+01	-9.16168131499E-01	-1.29437606330E+02	-9.19217436330E-01	-1.29489288661E+02	-1.44744109574E+01	-4.43753503392E+01
5.24600000000E+08	-1.43607848400E+01	-4.03916431522E+01	-9.17989809512E-01	-1.29611118370E+02	-9.19866841208E-01	-1.29678737823E+02	-1.44813747190E+01	-4.45941033650E+01
5.25200000000E+08	-1.43592126503E+01	-4.06064082918E+01	-9.21877342851E-01	-1.29796101736E+02	-9.21447483394E-01	-1.29854903221E+02	-1.44876004009E+01	-4.47540008842E+01
5.25800000000E+08	-1.43589578424E+01	-4.08510928309E+01	-9.27799865728E-01	-1.29980217008E+02	-9.27315787103E-01	-1.30032337190E+02	-1.44943936536E+01	-4.49674046377E+01
5.26400000000E+08	-1.43628693725E+01	-4.10866448153E+01	-9.32412246865E-01	-1.30144938765E+02	-9.30274603533E-01	-1.30215967097E+02	-1.44972800230E+01	-4.51993114985E+01
5.27000000000E+08	-1.43697020687E+01	-4.13718555024E+01	-9.35472270444E-01	-1.30335532067E+02	-9.33996078644E-01	-1.30399779567E+02	-1.44995594980E+01	-4.54288981006E+01
5.27600000000E+08	-1.43859433291E+01	-4.16056650883E+01	-9.42075895729E-01	-1.30495033086E+02	-9.38175209396E-01	-1.30565297291E+02	-1.45118129140E+01	-4.56803094512E+01
5.28200000000E+08	-1.44010987114E+01	-4.18803833159E+01	-9.43235791283E-01	-1.30681993565E+02	-9.44907847161E-01	-1.30750969820E+02	-1.45217399333E+01	-4.59446139242E+01
5.28800000000E+08	-1.44150876979E+01	-4.20668692164E+01	-9.47231154277E-01	-1.30841673791E+02	-9.47004248432E-01	-1.30929239951E+02	-1.45329163413E+01	-4.61438904468E+01
5.29400000000E+08	-1.44219562820E+01	-4.22515924335E+01	-9.52783677771E-01	-1.31027265006E+02	-9.49786650824E-01	-1.31105159343E+02	-1.45447769422E+01	-4.64292419680E+01
5.30000000000E+08	-1.44361780927E+01	-4.24680750216E+01	-9.56940737503E-01	-1.31207471462E+02	-9.53023128026E-01	-1.31295164988E+02	-1.45611057818E+01	-4.66234487913E+01
5.30600000000E+08	-1.44500057202E+01	-4.26474967689E+01	-9.60748702925E-01	-1.31400906205E+02	-9.57586427697E-01	-1.31455920520E+02	-1.45777923727E+01	-4.68105841636E+01
5.31200000000E+08	-1.44617857403E+01	-4.28419222271E+01	-9.63510830050E-01	-1.31559104980E+02	-9.60476596630E-01	-1.31635372432E+02	-1.45874861944E+01	-4.69893454550E+01
5.31800000000E+08	-1.44724021555E+01	-4.30400883432E+01	-9.68713813824E-01	-1.31746988770E+02	-9.64599994489E-01	-1.31832781463E+02	-1.45961149414E+01	-4.72210455369E+01
5.32400000000E+08	-1.44818051378E+01	-4.32331307998E+01	-9.72991750785E-01	-1.31930127642E+02	-9.65426460714E-01	-1.32011991864E+02	-1.45986929185E+01	-4.73722228399E+01
5.33000000000E+08	-1.44922528363E+01	-4.34178064220E+01	-9.78593329563E-01	-1.32101621524E+02	-9.70247500351E-01	-1.32193300147E+02	-1.46040558357E+01	-4.75883106399E+01
5.33600000000E+08	-1.45064996161E+01	-4.36114319893E+01	-9.82160532977E-01	-1.32288245498E+02	-9.75154820686E-01	-1.32369184531E+02	-1.46071922956E+01	-4.77995563478E+01
5.34200000000E+08	-1.45134512443E+01	-4.38131225577E+01	-9.87573010754E-01	-1.32468099474E+02	-9.78409959466E-01	-1.32548942596E+02	-1.46132945366E+01	-4.80175456859E+01
5.34800000000E+08	-1.45268506181E+01	-4.39725831146E+01	-9.90753732265E-01	-1.32628355188E+02	-9.81140541936E-01	-1.32744569396E+02	-1.46115149893E+01	-4.82709822089E+01
5.35400000000E+08	-1.45289992575E+01	-4.41561249312E+01	-9.96237798427E-01	-1.32809609463E+02	-9.87486866551E-01	-1.32933888474E+02	-1.46175544775E+01	-4.85199393124E+01
5.36000000000E+08	-1.45383003209E+01	-4.43466232778E+01	-1.00123353598E+00	-1.32996697927E+02	-9.91163053024E-01	-1.33129599310E+02	-1.46210896399E+01	-4.87713707588E+01
5.36600000000E+08	-1.45389021746E+01	-4.45139233083E+01	-1.00393280008E+00	-1.33176920295E+02	-9.97665219535E-01	-1.33308346397E+02	-1.46298253385E+01	-4.90312641395E+01
5.37200000000E+08	-1.45376808404E+01	-4.47094943548E+01	-1.00814521075E+00	-1.33368206374E+02	-1.00147171616E+00	-1.33513410667E+02	-1.46335833454E+01	-4.93076614071E+01
5.37800000000E+08	-1.45352442337E+01	-4.49436318083E+01	-1.01129906064E+00	-1.33545365753E+02	-1.00644137089E+00	-1.33693142780E+02	-1.46371217402E+01	-4.95715351001E+01
5.38400000000E+08	-1.45322908476E+01	-4.51855801845E+01	-1.01616536783E+00	-1.33752257169E+02	-1.01410068121E+00	-1.33882896044E+02	-1.46486905890E+01	-4.99083015712E+01
5.39000000000E+08	-1.45342331851E+01	-4.54911071920E+01	-1.02179290363E+00	-1.33933963425E+02	-1.02429168483E+00	-1.34075069472E+02	-1.46580047299E+01	-5.01974433396E+01
5.39600000000E+08	-1.45350094866E+01	-4.57721622033E+01	-1.02962028836E+00	-1.34116037459E+02	-1.02818848189E+00	-1.34264596893E+02	-1.46722391140E+01	-5.05058221652E+01
5.40200000000E+08	-1.45411157156E+01	-4.60894484311E+01	-1.03613360255E+00	-1.34294845570E+02	-1.03749933102E+00	-1.34444381516E+02	-1.46850957721E+01	-5.08067291921E+01
5.40800000000E+08	-1.45524387429E+01	-4.64148021777E+01	-1.04292963373E+00	-1.34493877063E+02	-1.04473774604E+00	-1.34608522319E+02	-1.47039937548E+01	-5.10804934667E+01
5.41400000000E+08	-1.45632224756E+01	-4.67571005340E+01	-1.05071038518E+00	-1.34659199306E+02	-1.05025971052E+00	-1.34789617144E+02	-1.47206983595E+01	-5.13341144314E+01
5.42000000000E+08	-1.45841385890E+01	-4.70761689411E+01	-1.05779678398E+00	-1.34839752558E+02	-1.05739222244E+00	-1.34973491174E+02	-1.47297593209E+01	-5.16245595357E+01
5.42600000000E+08	-1.46032042362E+01	-4.73722681545E+01	-1.06651690246E+00	-1.35003827565E+02	-1.06524662162E+00	-1.35146710116E+02	-1.47381949274E+01	-5.19418865299E+01
5.43200000000E+08	-1.46242233863E+01	-4.76741057651E+01	-1.07178781283E+00	-1.35177899699E+02	-1.07113002338E+00	-1.35314997473E+02	-1.47558807326E+01	-5.22741849171E+01
5.43800000000E+08	-1.46418614846E+01	-4.79717014055E+01	-1.08107775983E+00	-1.35335197773E+02	-1.07887401837E+00	-1.35482050303E+02	-1.47757414459E+01	-5.26346405688E+01
5.44400000000E+08	-1.46711097026E+01	-4.82972089280E+01	-1.08781373405E+00	-1.35517619403E+02	-1.08802331196E+00	-1.35647094189E+02	-1.48018885567E+01	-5.29673310926E+01
5.45000000000E+08	-1.46987627825E+01	-4.85785765288E+01	-1.09278904734E+00	-1.35681830259E+02	-1.09391574802E+00	-1.35806165274E+02	-1.48319853785E+01	-5.33085474005E+01
5.45600000000E+08	-1.47294138812E+01	-4.88724599308E+01	-1.10123762185E+00	-1.35838242102E+02	-1.09812201466E+00	-1.35963770391E+02	-1.48667552059E+01	-5.35630950563E+01
5.46200000000E+08	-1.47642740665E+01	-4.91334351207E+01	-1.10638429105E+00	-1.35978004196E+02	-1.10482910576E+00	-1.36134893193E+02	-1.48989739894E+01	-5.38159210172E+01
5.46800000000E+08	-1.48074022684E+01	-4.93364258447E+01	-1.11070565713E+00	-1.36120515606E+02	-1.10824914717E+00	-1.36296590942E+02	-1.49286808336E+01	-5.40546242329E+01
5.47400000000E+08	-1.48386571009E+01	-4.95387173249E+01	-1.11242767906E+00	-1.36281355767E+02	-1.11634674864E+00	-1.36484544840E+02	-1.49578668189E+01	-5.42969946185E+01
5.48000000000E+08	-1.48675177415E+01	-4.96767268423E+01	-1.11689575589E+00	-1.36428525090E+02	-1.12238121915E+00	-1.36645889375E+02	-1.49851402045E+01	-5.45446546022E+01
5.48600000000E+08	-1.48962011523E+01	-4.98502204332E+01	-1.11984597113E+00	-1.36603388781E+02	-1.12965216587E+00	-1.36797278797E+02	-1.50194070953E+01	-5.48573250958E+01
5.49200000000E+08	-1.49249178896E+01	-4.99783054475E+01	-1.11974169311E+00	-1.36746925293E+02	-1.13860459495E+00	-1.36953736858E+02	-1.50617728910E+01	-5.50800177874E+01
5.49800000000E+08	-1.49497366394E+01	-5.01140004118E+01	-1.12146661979E+00	-1.36940971984E+02	-1.14070634581E+00	-1.37091505977E+02	-1.51090784838E+01	-5.52810309027E+01
5.50400000000E+08	-1.49655442229E+01	-5.02163114397E+01	-1.12254528283E+00	-1.37107447235E+02	-1.14330599778E+00	-1.37246783218E+02	-1.51461567550E+01	-5.53693550193E+01
5.51000000000E+08	-1.49786057969E+01	-5.03955340741E+01	-1.12396025314E+00	-1.37316285562E+02	-1.14642423825E+00	-1.37402279390E+02	-1.51739440869E+01	-5.54500327366E+01
5.51600000000E+08	-1.49871874798E+01	-5.05879354725E+01	-1.12746521957E+00	-1.37497748600E+02	-1.14776659697E+00	-1.37569277962E+02	-1.51994573010E+01	-5.55726748177E+01
5.52200000000E+08	-1.50046924209E+01	-5.08333803777E+01	-1.13327425750E+00	-1.37696533671E+02	-1.14740599242E+00	-1.37724452122E+02	-1.52200208261E+01	-5.57106959253E+01
5.52800000000E+08	-1.50322358693E+01	-5.10146146797E+01	-1.13706052496E+00	-1.37864078416E+02	-1.14958074157E+00	-1.37904479118E+02	-1.52478949957E+01	-5.58002931581E+01
5.53400000000E+08	-1.50587931425E+01	-5.11587796386E+01	-1.14197505120E+00	-1.38041612421E+02	-1.15141444239E+00	-1.38085576013E+02	-1.52705973129E+01	-5.59255276991E+01
5.54000000000E+08	-1.50784668772E+01	-5.12931416685E+01	-1.14298788496E+00	-1.38222600486E+02	-1.15017739844E+00	-1.38256055458E+02	-1.52839651278E+01	-5.59941631401E+01
5.54600000000E+08	-1.50861051236E+01	-5.13786996958E+01	-1.14417784562E+00	-1.38373581474E+02	-1.15068270597E+00	-1.38460066985E+02	-1.52968245980E+01	-5.61247630088E+01
5.55200000000E+08	-1.50963681385E+01	-5.15074093223E+01	-1.14793743147E+00	-1.38601942277E+02	-1.15558280076E+00	-1.38665298471E+02	-1.53028859760E+01	-5.62575433940E+01
5.55800000000E+08	-1.50934264295E+01	-5.17014977136E+01	-1.15345700046E+00	-1.38806209066E+02	-1.16003133259E+00	-1.38862964632E+02	-1.53021294719E+01	-5.64392337367E+01
5.56400000000E+08	-1.50935090126E+01	-5.19118361655E+01	-1.15819375153E+00	-1.39014985215E+02	-1.16378696707E+00	-1.39060453264E+02	-1.53071390506E+01	-5.66987128780E+01
5.57000000000E+08	-1.50971856461E+01	-5.21850477037E+01	-1.16529757052E+00	-1.39205756213E+02	-1.17158278830E+00	-1.39258067863E+02	-1.53195032464E+01	-5.70016879539E+01
5.57600000000E+08	-1.51030551931E+01	-5.25158580724E+01	-1.17329448957E+00	-1.39385945410E+02	-1.17869503250E+00	-1.39411822067E+02	-1.53421852815E+01	-5.73113590345E+01
5.58200000000E+08	-1.51234824752E+01	-5.27986202424E+01	-1.18165489793E+00	-1.39558722065E+02	-1.18629979432E+00	-1.39600557098E+02	-1.53821641807E+01	-5.75402950482E+01
5.58800000000E+08	-1.51530590607E+01	-5.30755340466E+01	-1.18712851426E+00	-1.39732951529E+02	-1.18933172677E+00	-1.39767422471E+02	-1.54168237084E+01	-5.77340757216E+01
5.59400000000E+08	-1.51766807301E+01	-5.32665733526E+01	-1.18830871245E+00	-1.39907296227E+02	-1.19131571568E+00	-1.39927455042E+02	-1.54471600034E+01	-5.78057239506E+01
5.60000000000E+08	-1.52016834165E+01	-5.35041013219E+01	-1.19219114985E+00	-1.40090385461E+02	-1.19463831789E+00	-1.40138028497E+02	-1.54715586439E+01	-5.79160596848E+01
5.60600000000E+08	-1.52227839918E+01	-5.36707025618E+01	-1.19842420448E+00	-1.40274592723E+02	-1.19548446846E+00	-1.40306702153E+02	-1.54829535096E+01	-5.79983824249E+01
5.61200000000E+08	-1.52389714719E+01	-5.38631262201E+01	-1.20249701352E+00	-1.40460519846E+02	-1.19811809038E+00	-1.40495087909E+02	-1.54946369951E+01	-5.81081098830E+01
5.61800000000E+08	-1.52614623348E+01	-5.40368660546E+01	-1.20540513497E+00	-1.40643640712E+02	-1.20177895847E+00	-1.40679804179E+02	-1.55081717083E+01	-5.82413273924E+01
5.62400000000E+08	-1.52782343953E+01	-5.41872128066E+01	-1.20854002491E+00	-1.40833455142E+02	-1.20605728175E+00	-1.40891696687E+02	-1.55114420828E+01	-5.84248620948E+01
5.63000000000E+08	-1.52895593976E+01	-5.43864585055E+01	-1.21226037967E+00	-1.41037026639E+02	-1.20690594672E+00	-1.41096523576E+02	-1.55203200040E+01	-5.86044048029E+01
5.63600000000E+08	-1.52999696117E+01	-5.45727756737E+01	-1.21756915069E+00	-1.41226589145E+02	-1.21176855586E+00	-1.41291276592E+02	-1.55261908013E+01	-5.87796615292E+01
5.64200000000E+08	-1.53114592096E+01	-5.47296834544E+01	-1.22192221719E+00	-1.41408037039E+02	-1.21764105816E+00	-1.41501308734E+02	-1.55299616482E+01	-5.89695818458E+01
5.64800000000E+08	-1.53160579088E+01	-5.49094648878E+01	-1.22600624310E+00	-1.41614169558E+02	-1.22428651807E+00	-1.41694607064E+02	-1.55428843682E+01	-5.91893756622E+01
5.65400000000E+08	-1.53217841825E+01	-5.51763318161E+01	-1.23220304826E+00	-1.41824636335E+02	-1.22821056265E+00	-1.41898461233E+02	-1.55533128081E+01	-5.94552166535E+01
5.66000000000E+08	-1.53254336400E+01	-5.54348588166E+01	-1.23641729747E+00	-1.42012275314E+02	-1.23477322160E+00	-1.42117171576E+02	-1.55716009940E+01	-5.96576343939E+01
5.66600000000E+08	-1.53434481574E+01	-5.57232024667E+01	-1.24479484616E+00	-1.42220786406E+02	-1.23934215715E+00	-1.42298421368E+02	-1.55797798150E+01	-5.98784697937E+01
5.67200000000E+08	-1.53608234798E+01	-5.59852045889E+01	-1.25042158098E+00	-1.42412020124E+02	-1.24465310432E+00	-1.42499805178E+02	-1.55910225365E+01	-6.00317397910E+01
5.67800000000E+08	-1.53836094617E+01	-5.62336373548E+01	-1.25579662490E+00	-1.42610585414E+02	-1.25546793925E+00	-1.42703932591E+02	-1.55989826191E+01	-6.02641314689E+01
5.68400000000E+08	-1.54049933892E+01	-5.64298734282E+01	-1.26405594290E+00	-1.42795707826E+02	-1.26015329612E+00	-1.42908777755E+02	-1.56030673474E+01	-6.05359583981E+01
