# Hz S DB R 50
! CMT, S5065, 24347010, 24.3.4/3
! Date: 10/15/2024 11:50:38 AM
! Data: Format (Calibration Info)
! Freq	S11:dB/Ang(F2)	S21:dB/Ang(F2)	S12:dB/Ang(F2)	S22:dB/Ang(F2)
5.00000000000E+08	-1.42116160264E+01	-3.34677026077E+01	-8.03873830309E-01	-1.22499700172E+02	-8.03733488112E-01	-1.22570832044E+02	-1.42703075415E+01	-3.64909770712E+01
5.00600000000E+08	-1.42220188288E+01	-3.36340153889E+01	-8.03590785519E-01	-1.22656276469E+02	-8.04795028442E-01	-1.22746107155E+02	-1.42851406803E+01	-3.67081369376E+01
5.01200000000E+08	-1.42259385451E+01	-3.37399899112E+01	-8.07615266550E-01	-1.22808582600E+02	-8.10413128104E-01	-1.22884783880E+02	-1.42964592235E+01	-3.68943618317E+01
5.01800000000E+08	-1.42341614336E+01	-3.38610281774E+01	-8.07740497699E-01	-1.22967181739E+02	-8.13196148755E-01	-1.23056699561E+02	-1.43092859457E+01	-3.71064153965E+01
5.02400000000E+08	-1.42362505905E+01	-3.40028693755E+01	-8.08927474062E-01	-1.23156269720E+02	-8.13680980408E-01	-1.23232947094E+02	-1.43219474579E+01	-3.72534616312E+01
5.03000000000E+08	-1.42336744790E+01	-3.41559766198E+01	-8.08612979130E-01	-1.23332365443E+02	-8.18040066152E-01	-1.23394877274E+02	-1.43258654622E+01	-3.74044729994E+01
5.03600000000E+08	-1.42331924185E+01	-3.43221197128E+01	-8.14284236744E-01	-1.23502584646E+02	-8.18956774159E-01	-1.23559310706E+02	-1.43344044054E+01	-3.75726227054E+01
5.04200000000E+08	-1.42367306224E+01	-3.45143414717E+01	-8.16222524672E-01	-1.23677784014E+02	-8.20229191483E-01	-1.23722607595E+02	-1.43391588060E+01	-3.77681912367E+01
5.04800000000E+08	-1.42405106557E+01	-3.47091883824E+01	-8.20845331616E-01	-1.23857792262E+02	-8.23756444154E-01	-1.23899897950E+02	-1.43451637637E+01	-3.79666541030E+01
5.05400000000E+08	-1.42495332309E+01	-3.49153871078E+01	-8.23164939905E-01	-1.24017017960E+02	-8.27317871573E-01	-1.24054602693E+02	-1.43556650972E+01	-3.81484929963E+01
5.06000000000E+08	-1.42516995299E+01	-3.50651239023E+01	-8.24484973740E-01	-1.24183483681E+02	-8.29815932173E-01	-1.24221009629E+02	-1.43663305624E+01	-3.83208027728E+01
5.06600000000E+08	-1.42596319944E+01	-3.52099255541E+01	-8.26722648998E-01	-1.24351136655E+02	-8.33486018110E-01	-1.24394851513E+02	-1.43709476837E+01	-3.85045223139E+01
5.07200000000E+08	-1.42635272236E+01	-3.54009103643E+01	-8.31123622182E-01	-1.24521610029E+02	-8.34623577602E-01	-1.24539136139E+02	-1.43769727794E+01	-3.86927723337E+01
5.07800000000E+08	-1.42659218458E+01	-3.55810597380E+01	-8.33462515389E-01	-1.24676861298E+02	-8.36417898618E-01	-1.24694889199E+02	-1.43921660556E+01	-3.88580511218E+01
5.08400000000E+08	-1.42769076389E+01	-3.57673016614E+01	-8.36790474584E-01	-1.24859503936E+02	-8.40848059524E-01	-1.24850058127E+02	-1.44019459757E+01	-3.90543302795E+01
5.09000000000E+08	-1.42907090058E+01	-3.59509751602E+01	-8.39075643000E-01	-1.24985854204E+02	-8.41223750316E-01	-1.25021391801E+02	-1.44207325307E+01	-3.92236810211E+01
5.09600000000E+08	-1.43082736596E+01	-3.60870223503E+01	-8.40113693641E-01	-1.25147473324E+02	-8.41357039661E-01	-1.25168943853E+02	-1.44356012381E+01	-3.92945093346E+01
5.10200000000E+08	-1.43204732035E+01	-3.61408129345E+01	-8.37553020210E-01	-1.25312596526E+02	-8.38668322785E-01	-1.25334746423E+02	-1.44458254346E+01	-3.93485257373E+01
5.10800000000E+08	-1.43286554525E+01	-3.62170439893E+01	-8.36842249883E-01	-1.25486777247E+02	-8.35297888930E-01	-1.25523198995E+02	-1.44376609938E+01	-3.94188081140E+01
5.11400000000E+08	-1.43251971902E+01	-3.62613080543E+01	-8.37186363555E-01	-1.25667239027E+02	-8.35785979481E-01	-1.25718944319E+02	-1.44288959627E+01	-3.94932207711E+01
5.12000000000E+08	-1.43202613787E+01	-3.63486246445E+01	-8.39625948380E-01	-1.25864093040E+02	-8.37585922026E-01	-1.25919114028E+02	-1.44156159980E+01	-3.96279310703E+01
5.12600000000E+08	-1.43121815250E+01	-3.65155072718E+01	-8.39210190643E-01	-1.26062052789E+02	-8.38585866579E-01	-1.26115111382E+02	-1.44052427123E+01	-3.98093529100E+01
5.13200000000E+08	-1.43059778886E+01	-3.66377840017E+01	-8.42029730148E-01	-1.26244244896E+02	-8.43226525119E-01	-1.26284906486E+02	-1.43941513430E+01	-4.00292899178E+01
5.13800000000E+08	-1.42925065733E+01	-3.67952088836E+01	-8.44944486913E-01	-1.26438307022E+02	-8.48060205717E-01	-1.26483130135E+02	-1.43876881604E+01	-4.02666783745E+01
5.14400000000E+08	-1.42857182171E+01	-3.69676494774E+01	-8.49001412134E-01	-1.26633305484E+02	-8.50092301728E-01	-1.26669447191E+02	-1.43812081270E+01	-4.04931775396E+01
5.15000000000E+08	-1.42792301169E+01	-3.71610226486E+01	-8.51810947016E-01	-1.26809240958E+02	-8.56409547495E-01	-1.26851085937E+02	-1.43837504611E+01	-4.07501203875E+01
5.15600000000E+08	-1.42740069854E+01	-3.73652083150E+01	-8.57060365724E-01	-1.27005951271E+02	-8.58851079515E-01	-1.27027693064E+02	-1.43852229665E+01	-4.10066245448E+01
5.16200000000E+08	-1.42754668217E+01	-3.76046150236E+01	-8.62495859449E-01	-1.27199473493E+02	-8.64003276799E-01	-1.27217912179E+02	-1.43911204351E+01	-4.12409597265E+01
5.16800000000E+08	-1.42729795442E+01	-3.77989105353E+01	-8.65730523710E-01	-1.27362918026E+02	-8.67798219015E-01	-1.27398167512E+02	-1.43909710080E+01	-4.14616420608E+01
5.17400000000E+08	-1.42731912901E+01	-3.79891756967E+01	-8.69349952265E-01	-1.27534680058E+02	-8.71675218291E-01	-1.27551423897E+02	-1.43943524852E+01	-4.16663002437E+01
5.18000000000E+08	-1.42755829857E+01	-3.82107335765E+01	-8.73412224676E-01	-1.27714256744E+02	-8.73452727887E-01	-1.27724522327E+02	-1.43977118290E+01	-4.18952788024E+01
5.18600000000E+08	-1.42748456192E+01	-3.83864034861E+01	-8.75867386481E-01	-1.27905893352E+02	-8.74660369058E-01	-1.27906012721E+02	-1.43992252520E+01	-4.20873564556E+01
5.19200000000E+08	-1.42738775735E+01	-3.85985190218E+01	-8.83122971378E-01	-1.28100988692E+02	-8.77526721435E-01	-1.28086960061E+02	-1.44004468109E+01	-4.23062561702E+01
5.19800000000E+08	-1.42675689726E+01	-3.87895864935E+01	-8.84947543938E-01	-1.28258587275E+02	-8.82731052626E-01	-1.28273214617E+02	-1.43983817952E+01	-4.25019370105E+01
5.20400000000E+08	-1.42668095814E+01	-3.90384966240E+01	-8.90152883272E-01	-1.28461553797E+02	-8.86162003524E-01	-1.28475752274E+02	-1.43925212950E+01	-4.27463407979E+01
5.21000000000E+08	-1.42604518087E+01	-3.93002736552E+01	-8.95138358870E-01	-1.28633609836E+02	-8.91106623415E-01	-1.28650870575E+02	-1.43946554527E+01	-4.30233883286E+01
5.21600000000E+08	-1.42619536963E+01	-3.95491418928E+01	-9.01106589478E-01	-1.28826382365E+02	-8.94835913459E-01	-1.28831313952E+02	-1.43919033819E+01	-4.32865879417E+01
5.22200000000E+08	-1.42672429610E+01	-3.98503151021E+01	-9.07223093820E-01	-1.28997999523E+02	-8.98992566174E-01	-1.29015019208E+02	-1.43941159388E+01	-4.35866774255E+01
5.22800000000E+08	-1.42743003249E+01	-4.01335806391E+01	-9.14427099500E-01	-1.29177814945E+02	-9.06255749844E-01	-1.29187355260E+02	-1.44079965302E+01	-4.38555929185E+01
5.23400000000E+08	-1.42840828525E+01	-4.04232373417E+01	-9.20485601804E-01	-1.29345829054E+02	-9.14446608044E-01	-1.29361885017E+02	-1.44213485126E+01	-4.41559251822E+01
5.24000000000E+08	-1.42977929447E+01	-4.06635342055E+01	-9.25092837868E-01	-1.29512013744E+02	-9.18026076292E-01	-1.29524132479E+02	-1.44387158249E+01	-4.43314049570E+01
5.24600000000E+08	-1.43173867005E+01	-4.09052729487E+01	-9.31554867326E-01	-1.29653961079E+02	-9.18908330444E-01	-1.29693154806E+02	-1.44490861915E+01	-4.45586193663E+01
5.25200000000E+08	-1.43345329887E+01	-4.11355699773E+01	-9.34046303541E-01	-1.29831699147E+02	-9.22537807481E-01	-1.29872185555E+02	-1.44579997159E+01	-4.47428868655E+01
5.25800000000E+08	-1.43470905103E+01	-4.13159529109E+01	-9.38186059944E-01	-1.30002805183E+02	-9.27209862131E-01	-1.30043699077E+02	-1.44632351477E+01	-4.49451436397E+01
5.26400000000E+08	-1.43586737291E+01	-4.15000017592E+01	-9.41938931618E-01	-1.30155506362E+02	-9.31137778208E-01	-1.30232852543E+02	-1.44661988990E+01	-4.51551843585E+01
5.27000000000E+08	-1.43687355023E+01	-4.17678363703E+01	-9.45501548079E-01	-1.30341894330E+02	-9.35747076126E-01	-1.30423875980E+02	-1.44660654172E+01	-4.53389328318E+01
5.27600000000E+08	-1.43838946625E+01	-4.19623966094E+01	-9.51985900659E-01	-1.30512070166E+02	-9.37801899057E-01	-1.30594153707E+02	-1.44646388631E+01	-4.55836298954E+01
5.28200000000E+08	-1.44040566960E+01	-4.22110834865E+01	-9.53590292511E-01	-1.30685575540E+02	-9.46269080951E-01	-1.30783761149E+02	-1.44655503937E+01	-4.58377885627E+01
5.28800000000E+08	-1.44205756378E+01	-4.24021299416E+01	-9.58143404736E-01	-1.30840881538E+02	-9.48926218773E-01	-1.30949524794E+02	-1.44612951156E+01	-4.60675737587E+01
5.29400000000E+08	-1.44335610279E+01	-4.25838891543E+01	-9.64480997902E-01	-1.31012369929E+02	-9.56891241526E-01	-1.31139329620E+02	-1.44640367827E+01	-4.64564054451E+01
5.30000000000E+08	-1.44616598348E+01	-4.27975585600E+01	-9.68988688797E-01	-1.31180577484E+02	-9.62034644608E-01	-1.31336795051E+02	-1.44741074285E+01	-4.67863676762E+01
5.30600000000E+08	-1.44847995512E+01	-4.29350357490E+01	-9.71661496246E-01	-1.31338311694E+02	-9.71092587898E-01	-1.31494910996E+02	-1.44941816295E+01	-4.71146480122E+01
5.31200000000E+08	-1.45130167468E+01	-4.30330621488E+01	-9.73687701333E-01	-1.31486163014E+02	-9.75615728021E-01	-1.31637396922E+02	-1.45208525552E+01	-4.74210026316E+01
5.31800000000E+08	-1.45268222374E+01	-4.30701037435E+01	-9.71580670638E-01	-1.31659774407E+02	-9.80949184250E-01	-1.31789193060E+02	-1.45509219997E+01	-4.76661056346E+01
5.32400000000E+08	-1.45314159221E+01	-4.31009172810E+01	-9.71878874378E-01	-1.31841168789E+02	-9.78467390058E-01	-1.31958390021E+02	-1.45680218195E+01	-4.77841650914E+01
5.33000000000E+08	-1.45271210192E+01	-4.31801315585E+01	-9.72562732879E-01	-1.32027007467E+02	-9.81818806765E-01	-1.32125184807E+02	-1.45789040029E+01	-4.79147693733E+01
5.33600000000E+08	-1.45233965053E+01	-4.32945096497E+01	-9.75345487140E-01	-1.32229254041E+02	-9.81116288620E-01	-1.32302362286E+02	-1.45854856068E+01	-4.80730931926E+01
5.34200000000E+08	-1.45143823057E+01	-4.34589565188E+01	-9.79183779095E-01	-1.32418144970E+02	-9.85447115128E-01	-1.32486642161E+02	-1.45947769639E+01	-4.83048973588E+01
5.34800000000E+08	-1.45099520454E+01	-4.36381496191E+01	-9.81949904532E-01	-1.32607556043E+02	-9.87256586675E-01	-1.32673934983E+02	-1.45954280925E+01	-4.85573365970E+01
5.35400000000E+08	-1.45026603924E+01	-4.38523078577E+01	-9.87640546431E-01	-1.32809905130E+02	-9.92777294262E-01	-1.32862659596E+02	-1.46065178572E+01	-4.87749358889E+01
5.36000000000E+08	-1.45006427105E+01	-4.40855646481E+01	-9.93634375451E-01	-1.32993051555E+02	-9.93977447156E-01	-1.33053797459E+02	-1.46137076691E+01	-4.89707005700E+01
5.36600000000E+08	-1.44969548629E+01	-4.42786646755E+01	-9.96977947346E-01	-1.33179929748E+02	-1.00012352382E+00	-1.33235331213E+02	-1.46241221776E+01	-4.91923971141E+01
5.37200000000E+08	-1.44937464611E+01	-4.45145691839E+01	-1.00119252085E+00	-1.33375928756E+02	-1.00513845302E+00	-1.33427664190E+02	-1.46285963301E+01	-4.94312371499E+01
5.37800000000E+08	-1.44948589395E+01	-4.47816222195E+01	-1.00493707400E+00	-1.33564785189E+02	-1.00968278074E+00	-1.33618910470E+02	-1.46295747864E+01	-4.96549367460E+01
5.38400000000E+08	-1.44962013604E+01	-4.50258935371E+01	-1.01172322277E+00	-1.33766973502E+02	-1.01374522587E+00	-1.33811322922E+02	-1.46351184302E+01	-4.99480184212E+01
5.39000000000E+08	-1.44970971457E+01	-4.53026629965E+01	-1.01613302382E+00	-1.33943005519E+02	-1.02286172598E+00	-1.34003433195E+02	-1.46415508797E+01	-5.02275710748E+01
5.39600000000E+08	-1.45022041993E+01	-4.55507778660E+01	-1.02616137992E+00	-1.34137154474E+02	-1.02726041486E+00	-1.34195249029E+02	-1.46526410725E+01	-5.05294990928E+01
5.40200000000E+08	-1.45026906182E+01	-4.58312712174E+01	-1.03121411827E+00	-1.34314911370E+02	-1.03631258286E+00	-1.34370776148E+02	-1.46630350815E+01	-5.08174337317E+01
5.40800000000E+08	-1.45082907753E+01	-4.61274938418E+01	-1.03533539764E+00	-1.34509829264E+02	-1.04246289346E+00	-1.34550075252E+02	-1.46767510246E+01	-5.10920357984E+01
5.41400000000E+08	-1.45134460990E+01	-4.64442234182E+01	-1.04540145569E+00	-1.34686563805E+02	-1.04741232523E+00	-1.34728919019E+02	-1.46952809530E+01	-5.13423393801E+01
5.42000000000E+08	-1.45269061483E+01	-4.67462871370E+01	-1.05144381116E+00	-1.34870993145E+02	-1.05291346167E+00	-1.34910633926E+02	-1.47050651583E+01	-5.16083043330E+01
5.42600000000E+08	-1.45418514700E+01	-4.70431609368E+01	-1.06084345086E+00	-1.35061495971E+02	-1.05838138070E+00	-1.35087660241E+02	-1.47128139063E+01	-5.19047926100E+01
5.43200000000E+08	-1.45549642270E+01	-4.73093994916E+01	-1.06531608940E+00	-1.35228164927E+02	-1.06651597845E+00	-1.35254067684E+02	-1.47284462738E+01	-5.21881514713E+01
5.43800000000E+08	-1.45624298897E+01	-4.75774681893E+01	-1.07355216978E+00	-1.35388172580E+02	-1.07139955897E+00	-1.35452681972E+02	-1.47443584004E+01	-5.25000988703E+01
5.44400000000E+08	-1.45751141764E+01	-4.78874162955E+01	-1.07963834037E+00	-1.35585201465E+02	-1.08285069440E+00	-1.35624342500E+02	-1.47527033166E+01	-5.27794757682E+01
5.45000000000E+08	-1.45888302831E+01	-4.82057121560E+01	-1.08588252607E+00	-1.35782789096E+02	-1.08826491802E+00	-1.35802566453E+02	-1.47616073513E+01	-5.31142068622E+01
5.45600000000E+08	-1.46047339454E+01	-4.85495133904E+01	-1.09591702121E+00	-1.35947560709E+02	-1.09591601710E+00	-1.35983768613E+02	-1.47781482309E+01	-5.34849837943E+01
5.46200000000E+08	-1.46244786328E+01	-4.89167228714E+01	-1.10505688302E+00	-1.36109733051E+02	-1.10828715565E+00	-1.36139303583E+02	-1.48021326462E+01	-5.39059680371E+01
5.46800000000E+08	-1.46590417566E+01	-4.92327866201E+01	-1.11508837444E+00	-1.36261223677E+02	-1.11722736743E+00	-1.36302863900E+02	-1.48382740722E+01	-5.43036378364E+01
5.47400000000E+08	-1.46912800880E+01	-4.95505481724E+01	-1.12312066733E+00	-1.36408266595E+02	-1.12576224732E+00	-1.36458433292E+02	-1.48851164113E+01	-5.47078390019E+01
5.48000000000E+08	-1.47184675729E+01	-4.97977861867E+01	-1.12713694063E+00	-1.36545682936E+02	-1.13302536017E+00	-1.36592805344E+02	-1.49425635684E+01	-5.50123919104E+01
5.48600000000E+08	-1.47498690753E+01	-5.00872848067E+01	-1.13258887109E+00	-1.36699660638E+02	-1.13781227494E+00	-1.36714953919E+02	-1.50056088850E+01	-5.52636679700E+01
5.49200000000E+08	-1.47832573484E+01	-5.03501667468E+01	-1.13872155839E+00	-1.36841668307E+02	-1.14089652628E+00	-1.36854111847E+02	-1.50617272434E+01	-5.53457273456E+01
5.49800000000E+08	-1.48266170252E+01	-5.06395258745E+01	-1.14215632530E+00	-1.36992407407E+02	-1.14164770974E+00	-1.36998559050E+02	-1.51063894695E+01	-5.54097393944E+01
5.50400000000E+08	-1.48673886004E+01	-5.08639713007E+01	-1.14512035861E+00	-1.37137615040E+02	-1.14340817953E+00	-1.37155293332E+02	-1.51406168115E+01	-5.54491467773E+01
5.51000000000E+08	-1.49145825858E+01	-5.10593663781E+01	-1.14647224280E+00	-1.37266307272E+02	-1.14282446822E+00	-1.37321457960E+02	-1.51648352169E+01	-5.54950862324E+01
5.51600000000E+08	-1.49601429611E+01	-5.11703106971E+01	-1.14563582792E+00	-1.37427349820E+02	-1.14324892747E+00	-1.37476891667E+02	-1.51937788045E+01	-5.55782586418E+01
5.52200000000E+08	-1.50020770089E+01	-5.12111063000E+01	-1.14267372966E+00	-1.37605010287E+02	-1.14107407621E+00	-1.37636378337E+02	-1.52152733953E+01	-5.56083175341E+01
5.52800000000E+08	-1.50309302652E+01	-5.11489784541E+01	-1.13909577118E+00	-1.37799027090E+02	-1.13748787081E+00	-1.37834070620E+02	-1.52272060549E+01	-5.55932961803E+01
5.53400000000E+08	-1.50393450741E+01	-5.10928803263E+01	-1.14066850066E+00	-1.37979638563E+02	-1.13558651040E+00	-1.38043061191E+02	-1.52303716999E+01	-5.56467341627E+01
5.54000000000E+08	-1.50315236112E+01	-5.11666553349E+01	-1.14129390956E+00	-1.38222549961E+02	-1.13431303201E+00	-1.38256245828E+02	-1.52203473627E+01	-5.57432484728E+01
5.54600000000E+08	-1.50222138609E+01	-5.13029763974E+01	-1.14702161698E+00	-1.38445754771E+02	-1.13928778190E+00	-1.38499353832E+02	-1.52190002163E+01	-5.59302454510E+01
5.55200000000E+08	-1.50116287360E+01	-5.14888555224E+01	-1.15134978729E+00	-1.38642153802E+02	-1.14730471340E+00	-1.38696965998E+02	-1.52085285743E+01	-5.62040612201E+01
5.55800000000E+08	-1.49984391105E+01	-5.17569068842E+01	-1.15631181321E+00	-1.38851650284E+02	-1.15287064341E+00	-1.38907498934E+02	-1.52050223006E+01	-5.64951982412E+01
5.56400000000E+08	-1.49968817130E+01	-5.20459092948E+01	-1.16598481862E+00	-1.39057721473E+02	-1.16313440287E+00	-1.39111391959E+02	-1.52140403878E+01	-5.68565160507E+01
5.57000000000E+08	-1.49931727380E+01	-5.24004500211E+01	-1.17421356843E+00	-1.39248312679E+02	-1.17317527378E+00	-1.39301410889E+02	-1.52257427845E+01	-5.72288116332E+01
5.57600000000E+08	-1.49962914745E+01	-5.28268140156E+01	-1.18560213143E+00	-1.39437935733E+02	-1.18304999328E+00	-1.39478335281E+02	-1.52495930320E+01	-5.76002481115E+01
5.58200000000E+08	-1.50176471173E+01	-5.32730886958E+01	-1.19950188832E+00	-1.39609398443E+02	-1.19378303096E+00	-1.39654720526E+02	-1.52814668978E+01	-5.79272522960E+01
5.58800000000E+08	-1.50542520557E+01	-5.37719049094E+01	-1.20925102448E+00	-1.39764267967E+02	-1.20298827850E+00	-1.39819307377E+02	-1.53218434625E+01	-5.83210886080E+01
5.59400000000E+08	-1.51140402520E+01	-5.41539966443E+01	-1.21479127582E+00	-1.39878479266E+02	-1.21109588725E+00	-1.39949827801E+02	-1.53734661985E+01	-5.85956904055E+01
5.60000000000E+08	-1.51948973697E+01	-5.44280016125E+01	-1.21778329292E+00	-1.39993302830E+02	-1.21490405599E+00	-1.40099391344E+02	-1.54363348466E+01	-5.87936645265E+01
5.60600000000E+08	-1.52577746417E+01	-5.44174017168E+01	-1.21423734343E+00	-1.40141381830E+02	-1.21499440524E+00	-1.40218137283E+02	-1.54922314313E+01	-5.88176615503E+01
5.61200000000E+08	-1.52926123138E+01	-5.43345885237E+01	-1.20990193616E+00	-1.40307238442E+02	-1.21131639604E+00	-1.40382495994E+02	-1.55263860504E+01	-5.87184899397E+01
5.61800000000E+08	-1.53111948877E+01	-5.42920981895E+01	-1.20633107796E+00	-1.40498761132E+02	-1.20936887383E+00	-1.40568038314E+02	-1.55455749657E+01	-5.86533384580E+01
5.62400000000E+08	-1.53160988118E+01	-5.42955872612E+01	-1.20605598026E+00	-1.40725026013E+02	-1.20821116900E+00	-1.40799001356E+02	-1.55355954038E+01	-5.86931636722E+01
5.63000000000E+08	-1.53113992625E+01	-5.44259460162E+01	-1.20855155462E+00	-1.40943153729E+02	-1.20745610506E+00	-1.41012247906E+02	-1.55330474342E+01	-5.87868274575E+01
5.63600000000E+08	-1.53080297488E+01	-5.45865634643E+01	-1.21408353272E+00	-1.41160336323E+02	-1.21318444411E+00	-1.41229219067E+02	-1.55224886713E+01	-5.89654255145E+01
5.64200000000E+08	-1.53104979316E+01	-5.47886285073E+01	-1.21804928664E+00	-1.41368476271E+02	-1.22034501727E+00	-1.41465329857E+02	-1.55146902432E+01	-5.91953184100E+01
5.64800000000E+08	-1.53053781974E+01	-5.50006545667E+01	-1.22370368491E+00	-1.41591240689E+02	-1.22772064747E+00	-1.41652588768E+02	-1.55204575608E+01	-5.94939377810E+01
5.65400000000E+08	-1.53162888528E+01	-5.52975970619E+01	-1.23201554935E+00	-1.41793785979E+02	-1.23594210682E+00	-1.41863297436E+02	-1.55334214192E+01	-5.98341564167E+01
5.66000000000E+08	-1.53274858251E+01	-5.55799575440E+01	-1.23894655466E+00	-1.41989446910E+02	-1.24347829019E+00	-1.42061972810E+02	-1.55603026864E+01	-6.01244866007E+01
5.66600000000E+08	-1.53444442210E+01	-5.58405900699E+01	-1.24511075267E+00	-1.42179567576E+02	-1.24865173708E+00	-1.42231698685E+02	-1.55772209257E+01	-6.03722113407E+01
5.67200000000E+08	-1.53634310769E+01	-5.60848501002E+01	-1.25235251267E+00	-1.42377721328E+02	-1.25283879455E+00	-1.42427824744E+02	-1.56031601826E+01	-6.05572448471E+01
5.67800000000E+08	-1.53805984761E+01	-5.63331655043E+01	-1.25676075511E+00	-1.42564839838E+02	-1.26318584855E+00	-1.42625385427E+02	-1.56230105556E+01	-6.07532569732E+01
5.68400000000E+08	-1.54003064180E+01	-5.65457071889E+01	-1.26563644914E+00	-1.42759747977E+02	-1.26543877890E+00	-1.42813633853E+02	-1.56345151179E+01	-6.09596173162E+01
