# Hz S DB R 50
! CMT, S5065, 24347010, 24.3.4/3
! Date: 10/16/2024 1:06:23 AM
! Data: Format (Calibration Info)
! Freq	S11:dB/Ang(F2)	S21:dB/Ang(F2)	S12:dB/Ang(F2)	S22:dB/Ang(F2)
5.00000000000E+08	-1.33392671090E+01	-3.06485702467E+01	-5.44140698172E-01	-1.23245468091E+02	-5.44590799562E-01	-1.23185253118E+02	-1.33740022894E+01	-3.30493284671E+01
5.00600000000E+08	-1.33307646712E+01	-3.08324120366E+01	-5.47907011005E-01	-1.23437006477E+02	-5.49527200775E-01	-1.23368835963E+02	-1.33663189217E+01	-3.33257422715E+01
5.01200000000E+08	-1.33381041026E+01	-3.10289997592E+01	-5.53757143708E-01	-1.23623807565E+02	-5.48344411233E-01	-1.23550463182E+02	-1.33598108920E+01	-3.35649474343E+01
5.01800000000E+08	-1.33395516770E+01	-3.11770164269E+01	-5.51889808897E-01	-1.23785829709E+02	-5.52644250535E-01	-1.23731694828E+02	-1.33586694144E+01	-3.37833324906E+01
5.02400000000E+08	-1.33394164652E+01	-3.12800923998E+01	-5.53143466086E-01	-1.23971792102E+02	-5.53797014703E-01	-1.23904218046E+02	-1.33598310566E+01	-3.39230843102E+01
5.03000000000E+08	-1.33276617801E+01	-3.13552452272E+01	-5.51783964100E-01	-1.24152236752E+02	-5.52373940905E-01	-1.24089078114E+02	-1.33518067235E+01	-3.40985176784E+01
5.03600000000E+08	-1.33161957135E+01	-3.15400024701E+01	-5.52560847368E-01	-1.24346853112E+02	-5.52547098560E-01	-1.24290365136E+02	-1.33420532935E+01	-3.42696469904E+01
5.04200000000E+08	-1.33058562333E+01	-3.17253955984E+01	-5.55496117509E-01	-1.24547033678E+02	-5.54332946782E-01	-1.24479337164E+02	-1.33365468896E+01	-3.44421457508E+01
5.04800000000E+08	-1.32970595748E+01	-3.19067482098E+01	-5.54938198695E-01	-1.24735893415E+02	-5.54176286870E-01	-1.24682580151E+02	-1.33217324659E+01	-3.46268589716E+01
5.05400000000E+08	-1.32838737300E+01	-3.20937394991E+01	-5.59472246939E-01	-1.24928944070E+02	-5.57281613861E-01	-1.24873429044E+02	-1.33090135243E+01	-3.48348317078E+01
5.06000000000E+08	-1.32694874690E+01	-3.23022928419E+01	-5.63045033977E-01	-1.25132848252E+02	-5.61182216817E-01	-1.25077141235E+02	-1.32926943470E+01	-3.51104395541E+01
5.06600000000E+08	-1.32544982934E+01	-3.25682880003E+01	-5.65329656487E-01	-1.25327633742E+02	-5.64122336125E-01	-1.25269015771E+02	-1.32815065428E+01	-3.53565263270E+01
5.07200000000E+08	-1.32475239846E+01	-3.28524849956E+01	-5.70516126957E-01	-1.25512969618E+02	-5.67254848312E-01	-1.25451206873E+02	-1.32765593825E+01	-3.56682101219E+01
5.07800000000E+08	-1.32447671964E+01	-3.31249540378E+01	-5.73352253947E-01	-1.25690265238E+02	-5.71728668465E-01	-1.25635015500E+02	-1.32770221503E+01	-3.59359616753E+01
5.08400000000E+08	-1.32514293454E+01	-3.33898529429E+01	-5.78240712714E-01	-1.25877639420E+02	-5.78327558950E-01	-1.25827226851E+02	-1.32783213649E+01	-3.61757043358E+01
5.09000000000E+08	-1.32565834105E+01	-3.36182580031E+01	-5.81442100875E-01	-1.26055073843E+02	-5.80106319295E-01	-1.25970192101E+02	-1.32827195558E+01	-3.64190923024E+01
5.09600000000E+08	-1.32696549070E+01	-3.38007308990E+01	-5.82405209601E-01	-1.26192852521E+02	-5.83329245465E-01	-1.26152349128E+02	-1.32877903015E+01	-3.66179070236E+01
5.10200000000E+08	-1.32736555285E+01	-3.39336705614E+01	-5.83858862485E-01	-1.26373628476E+02	-5.80564912079E-01	-1.26321264971E+02	-1.32853976936E+01	-3.67370047007E+01
5.10800000000E+08	-1.32645601575E+01	-3.41436297326E+01	-5.85106027451E-01	-1.26577752164E+02	-5.85534097509E-01	-1.26507326373E+02	-1.32761008985E+01	-3.69447978271E+01
5.11400000000E+08	-1.32620119552E+01	-3.43293017567E+01	-5.88468441897E-01	-1.26761819748E+02	-5.89045237562E-01	-1.26705004904E+02	-1.32643506991E+01	-3.71872567956E+01
5.12000000000E+08	-1.32615666602E+01	-3.45628103391E+01	-5.90953147089E-01	-1.26945667245E+02	-5.88922992388E-01	-1.26886706740E+02	-1.32596886743E+01	-3.74266854568E+01
5.12600000000E+08	-1.32663233731E+01	-3.47976897023E+01	-5.95649359218E-01	-1.27121287459E+02	-5.94884306653E-01	-1.27069425882E+02	-1.32560358020E+01	-3.76815273621E+01
5.13200000000E+08	-1.32739291353E+01	-3.50249108280E+01	-5.99306809889E-01	-1.27298114683E+02	-5.97843795089E-01	-1.27253156942E+02	-1.32538070836E+01	-3.79127899443E+01
5.13800000000E+08	-1.32877430262E+01	-3.51657334593E+01	-5.99037413151E-01	-1.27474255204E+02	-5.99790391581E-01	-1.27411707630E+02	-1.32595161986E+01	-3.81792167004E+01
5.14400000000E+08	-1.32886232992E+01	-3.52628003813E+01	-5.99957196474E-01	-1.27636504941E+02	-6.00062556622E-01	-1.27567029802E+02	-1.32613848467E+01	-3.83940273463E+01
5.15000000000E+08	-1.32787010550E+01	-3.54263104032E+01	-6.00259877153E-01	-1.27836804911E+02	-5.99382736999E-01	-1.27767443518E+02	-1.32590860701E+01	-3.85734797159E+01
5.15600000000E+08	-1.32713998051E+01	-3.56213210813E+01	-6.04591686822E-01	-1.28009118116E+02	-6.01963722918E-01	-1.27951427779E+02	-1.32552891586E+01	-3.87687184167E+01
5.16200000000E+08	-1.32697550642E+01	-3.58449748177E+01	-6.08724573517E-01	-1.28209076455E+02	-6.05314340744E-01	-1.28148484844E+02	-1.32449300366E+01	-3.90080063275E+01
5.16800000000E+08	-1.32692446565E+01	-3.60940902715E+01	-6.09678963819E-01	-1.28387487733E+02	-6.10717597816E-01	-1.28329006410E+02	-1.32459954883E+01	-3.92777177233E+01
5.17400000000E+08	-1.32830574917E+01	-3.63142524814E+01	-6.14171652170E-01	-1.28549355164E+02	-6.13538418480E-01	-1.28492277573E+02	-1.32504380555E+01	-3.95507260064E+01
5.18000000000E+08	-1.32992428954E+01	-3.64920408982E+01	-6.16886315631E-01	-1.28708699100E+02	-6.16030894400E-01	-1.28643376476E+02	-1.32643506902E+01	-3.97559029111E+01
5.18600000000E+08	-1.33128242486E+01	-3.66056874942E+01	-6.14143105933E-01	-1.28887026926E+02	-6.13431272775E-01	-1.28808487776E+02	-1.32688763246E+01	-3.99007818065E+01
5.19200000000E+08	-1.33108833294E+01	-3.66132269211E+01	-6.12549952205E-01	-1.29044015459E+02	-6.09891871773E-01	-1.28964919606E+02	-1.32663507265E+01	-4.00161910933E+01
5.19800000000E+08	-1.32981413749E+01	-3.66876299347E+01	-6.11411559919E-01	-1.29243948268E+02	-6.09790178346E-01	-1.29197886719E+02	-1.32574478361E+01	-4.01888904560E+01
5.20400000000E+08	-1.32857161643E+01	-3.68606938164E+01	-6.10944010056E-01	-1.29459759968E+02	-6.11107968891E-01	-1.29384358926E+02	-1.32400540334E+01	-4.03675957978E+01
5.21000000000E+08	-1.32785957123E+01	-3.70991843039E+01	-6.16682099690E-01	-1.29657746129E+02	-6.13980728045E-01	-1.29596376280E+02	-1.32226788149E+01	-4.06420894508E+01
5.21600000000E+08	-1.32745516962E+01	-3.73422064402E+01	-6.21859087060E-01	-1.29851838342E+02	-6.21111333342E-01	-1.29790162742E+02	-1.32162714243E+01	-4.09876684100E+01
5.22200000000E+08	-1.32903765084E+01	-3.75397912878E+01	-6.27293985868E-01	-1.30012419724E+02	-6.24324899053E-01	-1.29954989299E+02	-1.32285421897E+01	-4.13341509836E+01
5.22800000000E+08	-1.33058870721E+01	-3.76464184419E+01	-6.26979491473E-01	-1.30160449816E+02	-6.23994670021E-01	-1.30102039596E+02	-1.32510368229E+01	-4.15997495926E+01
5.23400000000E+08	-1.33061553552E+01	-3.76487510838E+01	-6.24925416626E-01	-1.30322361746E+02	-6.21589631274E-01	-1.30265015218E+02	-1.32649583053E+01	-4.16957044386E+01
5.24000000000E+08	-1.32927563075E+01	-3.77323848352E+01	-6.21949480726E-01	-1.30518815236E+02	-6.20350949981E-01	-1.30458205605E+02	-1.32717620088E+01	-4.17929718967E+01
5.24600000000E+08	-1.32715587549E+01	-3.78407138015E+01	-6.21220630934E-01	-1.30726397612E+02	-6.20030746170E-01	-1.30667045862E+02	-1.32660895727E+01	-4.19360052650E+01
5.25200000000E+08	-1.32533720728E+01	-3.80265322115E+01	-6.19668425867E-01	-1.30928102254E+02	-6.19052978503E-01	-1.30876388230E+02	-1.32569103917E+01	-4.21339240246E+01
5.25800000000E+08	-1.32365552662E+01	-3.82307992547E+01	-6.24626044971E-01	-1.31129982418E+02	-6.23496812534E-01	-1.31076241660E+02	-1.32489607337E+01	-4.23503108725E+01
5.26400000000E+08	-1.32306674128E+01	-3.85251443829E+01	-6.28691912724E-01	-1.31323430943E+02	-6.25700546457E-01	-1.31260824743E+02	-1.32502571876E+01	-4.26334025057E+01
5.27000000000E+08	-1.32308426543E+01	-3.87325569703E+01	-6.29191489415E-01	-1.31503805506E+02	-6.27124792548E-01	-1.31439461364E+02	-1.32631719125E+01	-4.28320800518E+01
5.27600000000E+08	-1.32358799121E+01	-3.88917907544E+01	-6.32697298196E-01	-1.31672281715E+02	-6.29704517511E-01	-1.31625811085E+02	-1.32753706897E+01	-4.29857306372E+01
5.28200000000E+08	-1.32426489745E+01	-3.90170956675E+01	-6.29335913565E-01	-1.31855445982E+02	-6.29041015592E-01	-1.31802560235E+02	-1.32801121593E+01	-4.30866184357E+01
5.28800000000E+08	-1.32324339156E+01	-3.91526933353E+01	-6.27674167605E-01	-1.32058238356E+02	-6.24285681742E-01	-1.31996415371E+02	-1.32738207708E+01	-4.31667739003E+01
5.29400000000E+08	-1.32136072632E+01	-3.92561679513E+01	-6.25340595320E-01	-1.32265604471E+02	-6.23755822286E-01	-1.32211908133E+02	-1.32613412400E+01	-4.32774839971E+01
5.30000000000E+08	-1.31923968385E+01	-3.94522039352E+01	-6.29619974462E-01	-1.32501614969E+02	-6.25205333747E-01	-1.32429428231E+02	-1.32415056347E+01	-4.34656717785E+01
5.30600000000E+08	-1.31754706511E+01	-3.97068400132E+01	-6.28349669535E-01	-1.32704369700E+02	-6.27341842587E-01	-1.32647065261E+02	-1.32280875526E+01	-4.37294862848E+01
5.31200000000E+08	-1.31671052905E+01	-4.00183193252E+01	-6.33839732608E-01	-1.32921271779E+02	-6.33653979595E-01	-1.32862152673E+02	-1.32274370179E+01	-4.40066355488E+01
5.31800000000E+08	-1.31650735659E+01	-4.02344327042E+01	-6.35992176067E-01	-1.33117830779E+02	-6.34529209031E-01	-1.33054093923E+02	-1.32278610361E+01	-4.42428364714E+01
5.32400000000E+08	-1.31686998601E+01	-4.04987258416E+01	-6.39776910954E-01	-1.33310092118E+02	-6.36509120311E-01	-1.33252073836E+02	-1.32283237736E+01	-4.44125785443E+01
5.33000000000E+08	-1.31634552441E+01	-4.07310826558E+01	-6.43684607447E-01	-1.33491809028E+02	-6.39280263251E-01	-1.33443348325E+02	-1.32272138006E+01	-4.46345549522E+01
5.33600000000E+08	-1.31702654709E+01	-4.09461262718E+01	-6.44190853244E-01	-1.33703273670E+02	-6.43557316231E-01	-1.33646910610E+02	-1.32237482542E+01	-4.48249251054E+01
5.34200000000E+08	-1.31709009194E+01	-4.11437661635E+01	-6.46296226283E-01	-1.33908433588E+02	-6.42601011634E-01	-1.33827416549E+02	-1.32225970735E+01	-4.49852873937E+01
5.34800000000E+08	-1.31650925552E+01	-4.13526170249E+01	-6.49184401911E-01	-1.34114438348E+02	-6.46425995911E-01	-1.34032666178E+02	-1.32163861365E+01	-4.51715386536E+01
5.35400000000E+08	-1.31590941631E+01	-4.15447464590E+01	-6.50565931082E-01	-1.34308560695E+02	-6.48799459690E-01	-1.34260025339E+02	-1.32068577983E+01	-4.53651316416E+01
5.36000000000E+08	-1.31553185001E+01	-4.17552880394E+01	-6.52426617728E-01	-1.34514460550E+02	-6.50405283632E-01	-1.34453557023E+02	-1.31966761120E+01	-4.55587436232E+01
5.36600000000E+08	-1.31408323445E+01	-4.19375369781E+01	-6.54096566318E-01	-1.34734384969E+02	-6.52251929425E-01	-1.34674105001E+02	-1.31818114554E+01	-4.57869908118E+01
5.37200000000E+08	-1.31191898644E+01	-4.21954916892E+01	-6.57879954310E-01	-1.34932025028E+02	-6.57830313706E-01	-1.34904951288E+02	-1.31626982101E+01	-4.60602387181E+01
5.37800000000E+08	-1.31041243460E+01	-4.25581133025E+01	-6.66717987338E-01	-1.35183755019E+02	-6.63658164532E-01	-1.35122015861E+02	-1.31443943609E+01	-4.64124258665E+01
5.38400000000E+08	-1.30962894019E+01	-4.30382134973E+01	-6.76199638612E-01	-1.35389048809E+02	-6.75181124059E-01	-1.35337156389E+02	-1.31384820881E+01	-4.68625777932E+01
5.39000000000E+08	-1.31215553252E+01	-4.35159104062E+01	-6.88653871374E-01	-1.35545167288E+02	-6.87753106543E-01	-1.35500858479E+02	-1.31509068092E+01	-4.73790374620E+01
5.39600000000E+08	-1.31698430834E+01	-4.38981341095E+01	-6.94456641341E-01	-1.35710957355E+02	-6.93881567847E-01	-1.35648145080E+02	-1.31886866948E+01	-4.77761106641E+01
5.40200000000E+08	-1.32152433139E+01	-4.40834342653E+01	-6.99959295405E-01	-1.35828581590E+02	-6.95937158055E-01	-1.35769627399E+02	-1.32335434686E+01	-4.80743099068E+01
5.40800000000E+08	-1.32519659125E+01	-4.41651361153E+01	-6.97712502163E-01	-1.35978448473E+02	-6.95243288948E-01	-1.35917039647E+02	-1.32778870530E+01	-4.82283165096E+01
5.41400000000E+08	-1.32793673405E+01	-4.41928865232E+01	-6.93559761189E-01	-1.36125660298E+02	-6.90842211186E-01	-1.36075225875E+02	-1.33259087839E+01	-4.82710791538E+01
5.42000000000E+08	-1.33001454565E+01	-4.41750493718E+01	-6.88072723610E-01	-1.36291361347E+02	-6.85323939423E-01	-1.36233806548E+02	-1.33527291960E+01	-4.81911655022E+01
5.42600000000E+08	-1.32957099336E+01	-4.41443283665E+01	-6.80555332631E-01	-1.36492506548E+02	-6.76921461186E-01	-1.36435815968E+02	-1.33527891825E+01	-4.80864859052E+01
5.43200000000E+08	-1.32757516744E+01	-4.41533871400E+01	-6.73389380008E-01	-1.36712326816E+02	-6.71250655083E-01	-1.36664633334E+02	-1.33361287273E+01	-4.80703432222E+01
5.43800000000E+08	-1.32473397214E+01	-4.42683904329E+01	-6.70691925435E-01	-1.36985444376E+02	-6.69835469707E-01	-1.36915808469E+02	-1.33055000908E+01	-4.81428735248E+01
5.44400000000E+08	-1.32117585139E+01	-4.45566546741E+01	-6.74010552687E-01	-1.37234810261E+02	-6.72055206135E-01	-1.37187061142E+02	-1.32697064090E+01	-4.83557864909E+01
5.45000000000E+08	-1.32030578713E+01	-4.50202763583E+01	-6.83176785930E-01	-1.37480286681E+02	-6.80064929836E-01	-1.37418947441E+02	-1.32495006832E+01	-4.87076637618E+01
5.45600000000E+08	-1.32304568407E+01	-4.54714501003E+01	-6.94351243320E-01	-1.37665331928E+02	-6.91796933639E-01	-1.37595831162E+02	-1.32501282772E+01	-4.91458042767E+01
5.46200000000E+08	-1.32799141860E+01	-4.56745066915E+01	-6.98313523317E-01	-1.37808413242E+02	-6.98051166010E-01	-1.37765153343E+02	-1.32742801838E+01	-4.94533088046E+01
5.46800000000E+08	-1.33089700453E+01	-4.56911321350E+01	-6.97309831816E-01	-1.37992052752E+02	-6.95546393962E-01	-1.37934990390E+02	-1.33015549085E+01	-4.96307658518E+01
5.47400000000E+08	-1.33221846822E+01	-4.57383305345E+01	-6.94089031047E-01	-1.38191224903E+02	-6.91479170523E-01	-1.38121468567E+02	-1.33208152606E+01	-4.97389141960E+01
5.48000000000E+08	-1.33232546332E+01	-4.57560400491E+01	-6.91434353642E-01	-1.38362561427E+02	-6.88585693161E-01	-1.38323195899E+02	-1.33255012426E+01	-4.98335215451E+01
5.48600000000E+08	-1.33163218333E+01	-4.57827375257E+01	-6.89788253091E-01	-1.38596758780E+02	-6.86571515592E-01	-1.38521719713E+02	-1.33255508518E+01	-4.99410105325E+01
5.49200000000E+08	-1.32982395873E+01	-4.58822768669E+01	-6.85962217203E-01	-1.38817669210E+02	-6.84708650603E-01	-1.38760329347E+02	-1.33220883470E+01	-5.00817811992E+01
5.49800000000E+08	-1.32781707019E+01	-4.60436591535E+01	-6.88215035362E-01	-1.39045583234E+02	-6.83781075959E-01	-1.38983167573E+02	-1.33168764191E+01	-5.02222598811E+01
5.50400000000E+08	-1.32621588777E+01	-4.62587396985E+01	-6.86917709202E-01	-1.39260993943E+02	-6.84172403516E-01	-1.39196073105E+02	-1.33183968126E+01	-5.03659021023E+01
5.51000000000E+08	-1.32598647895E+01	-4.64610731201E+01	-6.87977662483E-01	-1.39482831140E+02	-6.83805378225E-01	-1.39443226703E+02	-1.33105853328E+01	-5.04675336672E+01
5.51600000000E+08	-1.32524792948E+01	-4.65992169449E+01	-6.84233699343E-01	-1.39737655926E+02	-6.82917326068E-01	-1.39681645464E+02	-1.32955798512E+01	-5.05750998317E+01
5.52200000000E+08	-1.32358221439E+01	-4.67727907828E+01	-6.86330885038E-01	-1.39978316380E+02	-6.80749563800E-01	-1.39912743026E+02	-1.32687426032E+01	-5.07370333846E+01
5.52800000000E+08	-1.32133595205E+01	-4.70085635838E+01	-6.86937353509E-01	-1.40236701400E+02	-6.83056459999E-01	-1.40171065684E+02	-1.32399445416E+01	-5.09621962819E+01
5.53400000000E+08	-1.31902859473E+01	-4.72700263515E+01	-6.91162063763E-01	-1.40491256899E+02	-6.87405081872E-01	-1.40440727682E+02	-1.32131750845E+01	-5.12528728598E+01
5.54000000000E+08	-1.31668810942E+01	-4.76318440654E+01	-6.95696477134E-01	-1.40740145757E+02	-6.93735425729E-01	-1.40687631040E+02	-1.31914370646E+01	-5.16309422852E+01
5.54600000000E+08	-1.31568635781E+01	-4.80496532688E+01	-7.03229489112E-01	-1.40979488223E+02	-7.03180188201E-01	-1.40940722882E+02	-1.31854538546E+01	-5.20315486122E+01
5.55200000000E+08	-1.31700001417E+01	-4.84567179121E+01	-7.14642449415E-01	-1.41198449011E+02	-7.13116727034E-01	-1.41151394755E+02	-1.31830782979E+01	-5.24450052052E+01
5.55800000000E+08	-1.31869041193E+01	-4.87711400110E+01	-7.22645414381E-01	-1.41401918144E+02	-7.16792250120E-01	-1.41353331180E+02	-1.31928117169E+01	-5.27995927531E+01
5.56400000000E+08	-1.31948810346E+01	-4.90137463968E+01	-7.25494561387E-01	-1.41595276369E+02	-7.23220636642E-01	-1.41562592900E+02	-1.32071415617E+01	-5.31195806381E+01
5.57000000000E+08	-1.32058094184E+01	-4.92837761664E+01	-7.30106259742E-01	-1.41822072840E+02	-7.28071081263E-01	-1.41770688127E+02	-1.32203971579E+01	-5.34093065935E+01
5.57600000000E+08	-1.32078877533E+01	-4.95029794068E+01	-7.33322239574E-01	-1.42024463995E+02	-7.31737835751E-01	-1.41983509062E+02	-1.32326184207E+01	-5.36400179906E+01
5.58200000000E+08	-1.32055347458E+01	-4.97621085226E+01	-7.36115777820E-01	-1.42252943093E+02	-7.32583953278E-01	-1.42214641285E+02	-1.32424807124E+01	-5.38235943058E+01
5.58800000000E+08	-1.31982470604E+01	-5.00640491064E+01	-7.40394207967E-01	-1.42502903817E+02	-7.36088937199E-01	-1.42435346687E+02	-1.32418437253E+01	-5.39937653306E+01
5.59400000000E+08	-1.31903291747E+01	-5.04258877947E+01	-7.44238571955E-01	-1.42731270958E+02	-7.41136760204E-01	-1.42674129236E+02	-1.32249777108E+01	-5.42037950103E+01
5.60000000000E+08	-1.31973710771E+01	-5.08928278671E+01	-7.53732083693E-01	-1.42966664601E+02	-7.51471636203E-01	-1.42909121027E+02	-1.32042112250E+01	-5.44590656136E+01
5.60600000000E+08	-1.32164753418E+01	-5.13639528659E+01	-7.63548165104E-01	-1.43190867127E+02	-7.59380805514E-01	-1.43123399817E+02	-1.31799366866E+01	-5.48108757038E+01
5.61200000000E+08	-1.32647888228E+01	-5.18152123812E+01	-7.75250761983E-01	-1.43389233633E+02	-7.74207712192E-01	-1.43331227735E+02	-1.31577793069E+01	-5.53054968579E+01
5.61800000000E+08	-1.33419897607E+01	-5.20535279561E+01	-7.87412994627E-01	-1.43536730410E+02	-7.84540254158E-01	-1.43499264928E+02	-1.31670101486E+01	-5.59527377839E+01
5.62400000000E+08	-1.34061551398E+01	-5.19412886593E+01	-7.88347009223E-01	-1.43664294929E+02	-7.86493030879E-01	-1.43594216206E+02	-1.32241855783E+01	-5.65246345212E+01
5.63000000000E+08	-1.34107614508E+01	-5.17447553481E+01	-7.78538678340E-01	-1.43831832034E+02	-7.76251484159E-01	-1.43764844850E+02	-1.32874193785E+01	-5.67106320724E+01
5.63600000000E+08	-1.33862422821E+01	-5.17327270292E+01	-7.72333612628E-01	-1.44063836604E+02	-7.69479988095E-01	-1.43993512901E+02	-1.33151564744E+01	-5.67341211353E+01
5.64200000000E+08	-1.33690978876E+01	-5.19073451157E+01	-7.71439715523E-01	-1.44302778024E+02	-7.68240201095E-01	-1.44245776993E+02	-1.33167565451E+01	-5.68851733087E+01
5.64800000000E+08	-1.33600760065E+01	-5.20886614538E+01	-7.71922661590E-01	-1.44546401652E+02	-7.69716074269E-01	-1.44494098791E+02	-1.33326411279E+01	-5.70175215368E+01
5.65400000000E+08	-1.33556356126E+01	-5.22867343813E+01	-7.71875013206E-01	-1.44791005654E+02	-7.70624749864E-01	-1.44714524907E+02	-1.33344011385E+01	-5.71635907108E+01
5.66000000000E+08	-1.33480377869E+01	-5.24837250667E+01	-7.74637830877E-01	-1.45007089627E+02	-7.71305558500E-01	-1.44934494392E+02	-1.33314711053E+01	-5.73055990492E+01
5.66600000000E+08	-1.33506215098E+01	-5.27283511320E+01	-7.73835908832E-01	-1.45242923097E+02	-7.72744329190E-01	-1.45203601640E+02	-1.33232722412E+01	-5.74527327968E+01
5.67200000000E+08	-1.33483446447E+01	-5.29513649708E+01	-7.74265543345E-01	-1.45495997922E+02	-7.75333812484E-01	-1.45437247983E+02	-1.33030509701E+01	-5.76789322547E+01
5.67800000000E+08	-1.33498684024E+01	-5.31429870072E+01	-7.78486138557E-01	-1.45736328097E+02	-7.76190432878E-01	-1.45685801256E+02	-1.32878216346E+01	-5.79698421797E+01
5.68400000000E+08	-1.33506324289E+01	-5.32964659393E+01	-7.82855856746E-01	-1.45975241056E+02	-7.78251305260E-01	-1.45925106284E+02	-1.32814139778E+01	-5.82752688804E+01
