# Hz S DB R 50
! CMT, S5065, 24347010, 24.3.4/3
! Date: 10/16/2024 1:06:09 AM
! Data: Format (Calibration Info)
! Freq	S11:dB/Ang(F2)	S21:dB/Ang(F2)	S12:dB/Ang(F2)	S22:dB/Ang(F2)
5.00000000000E+08	-1.33521035207E+01	-3.06184928343E+01	-5.45677947857E-01	-1.23223833304E+02	-5.48364271700E-01	-1.23140942692E+02	-1.34028071302E+01	-3.31450471188E+01
5.00600000000E+08	-1.33402456535E+01	-3.07353942618E+01	-5.45099252310E-01	-1.23414423566E+02	-5.49413359868E-01	-1.23328656649E+02	-1.33942656335E+01	-3.33402979656E+01
5.01200000000E+08	-1.33346197899E+01	-3.08700797451E+01	-5.48426947389E-01	-1.23616734479E+02	-5.45937073922E-01	-1.23500718304E+02	-1.33870898315E+01	-3.35143874976E+01
5.01800000000E+08	-1.33214633134E+01	-3.10226065754E+01	-5.47128207376E-01	-1.23795279003E+02	-5.45469147290E-01	-1.23682461769E+02	-1.33765787120E+01	-3.36630828417E+01
5.02400000000E+08	-1.33119576337E+01	-3.11639437912E+01	-5.48189201167E-01	-1.23994370532E+02	-5.46561004522E-01	-1.23878571962E+02	-1.33717433502E+01	-3.38188094363E+01
5.03000000000E+08	-1.33056440203E+01	-3.13249254066E+01	-5.50434057343E-01	-1.24181582125E+02	-5.47625270725E-01	-1.24079080473E+02	-1.33604309537E+01	-3.39951857180E+01
5.03600000000E+08	-1.32905186401E+01	-3.15199388496E+01	-5.49942198394E-01	-1.24378230660E+02	-5.47409746020E-01	-1.24284839018E+02	-1.33459810978E+01	-3.41462216748E+01
5.04200000000E+08	-1.32732963159E+01	-3.17056496141E+01	-5.53565792359E-01	-1.24581006479E+02	-5.48835423986E-01	-1.24481510403E+02	-1.33324056706E+01	-3.43223623075E+01
5.04800000000E+08	-1.32659716692E+01	-3.19628940047E+01	-5.57740015092E-01	-1.24777782610E+02	-5.52497650101E-01	-1.24705822861E+02	-1.33088258062E+01	-3.45594663944E+01
5.05400000000E+08	-1.32511191231E+01	-3.22098907418E+01	-5.59968828396E-01	-1.24970690745E+02	-5.58153902646E-01	-1.24896228683E+02	-1.32958876762E+01	-3.48264435029E+01
5.06000000000E+08	-1.32452138663E+01	-3.24717649272E+01	-5.67136266371E-01	-1.25161380370E+02	-5.62694128390E-01	-1.25081659007E+02	-1.32845432027E+01	-3.51447457933E+01
5.06600000000E+08	-1.32403972437E+01	-3.27544065883E+01	-5.69191398626E-01	-1.25345187183E+02	-5.66595241793E-01	-1.25258719343E+02	-1.32799585722E+01	-3.54002487250E+01
5.07200000000E+08	-1.32398526692E+01	-3.30278511856E+01	-5.74885234226E-01	-1.25526995680E+02	-5.69424677876E-01	-1.25432408480E+02	-1.32754752681E+01	-3.56713888413E+01
5.07800000000E+08	-1.32465537241E+01	-3.32893706765E+01	-5.80930837085E-01	-1.25704991138E+02	-5.73373912794E-01	-1.25624954610E+02	-1.32754268165E+01	-3.59511264833E+01
5.08400000000E+08	-1.32555110987E+01	-3.35065669680E+01	-5.82232255665E-01	-1.25879160828E+02	-5.78544759564E-01	-1.25801369207E+02	-1.32798402142E+01	-3.61805849862E+01
5.09000000000E+08	-1.32636917316E+01	-3.36928661816E+01	-5.86670438120E-01	-1.26043118911E+02	-5.78249399669E-01	-1.25968683336E+02	-1.32811682133E+01	-3.64302971707E+01
5.09600000000E+08	-1.32746708449E+01	-3.39005739896E+01	-5.88346206626E-01	-1.26188516370E+02	-5.82164992449E-01	-1.26137176942E+02	-1.32848529477E+01	-3.66585659933E+01
5.10200000000E+08	-1.32787080856E+01	-3.40520418036E+01	-5.88523001860E-01	-1.26372274620E+02	-5.80903633067E-01	-1.26314446973E+02	-1.32885862828E+01	-3.68204756826E+01
5.10800000000E+08	-1.32779397819E+01	-3.42505233996E+01	-5.88938286615E-01	-1.26551449234E+02	-5.82998776765E-01	-1.26486074071E+02	-1.32885682989E+01	-3.70328829794E+01
5.11400000000E+08	-1.32797780937E+01	-3.43711360823E+01	-5.90160561846E-01	-1.26733181098E+02	-5.87322097664E-01	-1.26686970633E+02	-1.32833014973E+01	-3.72125330436E+01
5.12000000000E+08	-1.32824279264E+01	-3.45594053273E+01	-5.93606666088E-01	-1.26915288314E+02	-5.84914059322E-01	-1.26854000349E+02	-1.32793225884E+01	-3.73953019451E+01
5.12600000000E+08	-1.32831537053E+01	-3.47265686460E+01	-5.94833962287E-01	-1.27084350378E+02	-5.90361378426E-01	-1.27038803427E+02	-1.32729699437E+01	-3.76122994400E+01
5.13200000000E+08	-1.32794035270E+01	-3.49022666971E+01	-5.93320312040E-01	-1.27266050473E+02	-5.92999347368E-01	-1.27242458006E+02	-1.32683617323E+01	-3.78015800263E+01
5.13800000000E+08	-1.32811338722E+01	-3.50429686521E+01	-5.93292022457E-01	-1.27458799959E+02	-5.95503331230E-01	-1.27433285593E+02	-1.32641969622E+01	-3.80514746993E+01
5.14400000000E+08	-1.32795626986E+01	-3.51768672462E+01	-5.95787536532E-01	-1.27638196604E+02	-5.94735888147E-01	-1.27601700246E+02	-1.32556934426E+01	-3.82928501773E+01
5.15000000000E+08	-1.32684790908E+01	-3.53490255967E+01	-5.95379284857E-01	-1.27839158718E+02	-6.00293410070E-01	-1.27786183323E+02	-1.32530491775E+01	-3.85128470072E+01
5.15600000000E+08	-1.32562328802E+01	-3.55394541818E+01	-5.99988265417E-01	-1.28030767507E+02	-6.02546045945E-01	-1.27950173070E+02	-1.32541634450E+01	-3.87661876463E+01
5.16200000000E+08	-1.32490734839E+01	-3.57615050179E+01	-6.04701427429E-01	-1.28223734827E+02	-6.03967584383E-01	-1.28141796916E+02	-1.32537813197E+01	-3.89790128680E+01
5.16800000000E+08	-1.32439435267E+01	-3.60332725138E+01	-6.08175713432E-01	-1.28431198946E+02	-6.05506666198E-01	-1.28316224663E+02	-1.32533113714E+01	-3.91397469028E+01
5.17400000000E+08	-1.32455678479E+01	-3.62730722003E+01	-6.11792023828E-01	-1.28589160429E+02	-6.06975592534E-01	-1.28503161734E+02	-1.32451645511E+01	-3.93781085335E+01
5.18000000000E+08	-1.32527527663E+01	-3.65369449484E+01	-6.16171040311E-01	-1.28773004262E+02	-6.10898584619E-01	-1.28690957259E+02	-1.32409764495E+01	-3.96279691470E+01
5.18600000000E+08	-1.32649363145E+01	-3.67037732119E+01	-6.17485629834E-01	-1.28942205279E+02	-6.15009353889E-01	-1.28856432927E+02	-1.32474288264E+01	-3.98860608559E+01
5.19200000000E+08	-1.32682690156E+01	-3.68860413900E+01	-6.19432685475E-01	-1.29118628057E+02	-6.12862516328E-01	-1.29023170190E+02	-1.32499536295E+01	-4.01111224737E+01
5.19800000000E+08	-1.32708920017E+01	-3.70649702395E+01	-6.22309536274E-01	-1.29311965268E+02	-6.14751405431E-01	-1.29204599632E+02	-1.32537745836E+01	-4.03018431848E+01
5.20400000000E+08	-1.32762063575E+01	-3.72591611917E+01	-6.25193573877E-01	-1.29488776932E+02	-6.15927122211E-01	-1.29380968620E+02	-1.32506370716E+01	-4.04632943989E+01
5.21000000000E+08	-1.32836180953E+01	-3.74389124263E+01	-6.28380570397E-01	-1.29648912640E+02	-6.15001523768E-01	-1.29560522285E+02	-1.32440598872E+01	-4.06635009362E+01
5.21600000000E+08	-1.32846836915E+01	-3.76159944611E+01	-6.31392850294E-01	-1.29845913206E+02	-6.17252050425E-01	-1.29755888686E+02	-1.32373775332E+01	-4.08868012746E+01
5.22200000000E+08	-1.32975408492E+01	-3.77739459688E+01	-6.33226858417E-01	-1.30009685695E+02	-6.19251406274E-01	-1.29948913029E+02	-1.32352465865E+01	-4.11702318270E+01
5.22800000000E+08	-1.33034897081E+01	-3.79220629464E+01	-6.32550196123E-01	-1.30168374739E+02	-6.21637772147E-01	-1.30117869485E+02	-1.32435388313E+01	-4.14327998377E+01
5.23400000000E+08	-1.33086911816E+01	-3.80362866527E+01	-6.34102723915E-01	-1.30346768526E+02	-6.19594454497E-01	-1.30287114670E+02	-1.32507721724E+01	-4.16056768919E+01
5.24000000000E+08	-1.33154365563E+01	-3.81717389545E+01	-6.35210860382E-01	-1.30523180668E+02	-6.19227659383E-01	-1.30478295390E+02	-1.32583181197E+01	-4.17587491060E+01
5.24600000000E+08	-1.33172326323E+01	-3.82669858973E+01	-6.33311492667E-01	-1.30704896288E+02	-6.17769640404E-01	-1.30671147308E+02	-1.32562858179E+01	-4.19228470665E+01
5.25200000000E+08	-1.33194569548E+01	-3.83454683196E+01	-6.32488414722E-01	-1.30872410902E+02	-6.18004404501E-01	-1.30865082353E+02	-1.32582173713E+01	-4.21182582148E+01
5.25800000000E+08	-1.33120986387E+01	-3.84277339881E+01	-6.32197960536E-01	-1.31054507813E+02	-6.20331761332E-01	-1.31071755187E+02	-1.32519254427E+01	-4.23053926423E+01
5.26400000000E+08	-1.33078667530E+01	-3.85323948256E+01	-6.32580740282E-01	-1.31245478635E+02	-6.19840059101E-01	-1.31263052242E+02	-1.32495394110E+01	-4.25297547900E+01
5.27000000000E+08	-1.32948631878E+01	-3.86294707604E+01	-6.28295958755E-01	-1.31432853866E+02	-6.21952990554E-01	-1.31452132092E+02	-1.32552236426E+01	-4.27061782935E+01
5.27600000000E+08	-1.32809530572E+01	-3.87019030424E+01	-6.29234071654E-01	-1.31627960717E+02	-6.25080516200E-01	-1.31650253451E+02	-1.32609937702E+01	-4.28831256235E+01
5.28200000000E+08	-1.32656961226E+01	-3.88539578926E+01	-6.25534899630E-01	-1.31842051645E+02	-6.25679349188E-01	-1.31848388156E+02	-1.32596891595E+01	-4.29992384957E+01
5.28800000000E+08	-1.32450697907E+01	-3.90584293935E+01	-6.25947502141E-01	-1.32050442938E+02	-6.22012911150E-01	-1.32041691544E+02	-1.32515463047E+01	-4.31141052814E+01
5.29400000000E+08	-1.32298365101E+01	-3.92427133366E+01	-6.27859565306E-01	-1.32260275216E+02	-6.23913256373E-01	-1.32238053979E+02	-1.32426103725E+01	-4.32752668703E+01
5.30000000000E+08	-1.32199717394E+01	-3.94577433838E+01	-6.33412106305E-01	-1.32461066102E+02	-6.27232229396E-01	-1.32445509642E+02	-1.32291948984E+01	-4.34824293225E+01
5.30600000000E+08	-1.32147660062E+01	-3.96904202886E+01	-6.31975752056E-01	-1.32652892675E+02	-6.28375551670E-01	-1.32667178145E+02	-1.32204363309E+01	-4.37515907515E+01
5.31200000000E+08	-1.32066550417E+01	-3.99204505811E+01	-6.32787825776E-01	-1.32863366266E+02	-6.33590592142E-01	-1.32861746201E+02	-1.32162005515E+01	-4.39837941077E+01
5.31800000000E+08	-1.32043755162E+01	-4.00458165005E+01	-6.32412093757E-01	-1.33047474660E+02	-6.33427735544E-01	-1.33059521533E+02	-1.32147356285E+01	-4.42063006632E+01
5.32400000000E+08	-1.31985023207E+01	-4.02380535222E+01	-6.34671812143E-01	-1.33270343064E+02	-6.36598764071E-01	-1.33247224741E+02	-1.32152586043E+01	-4.44027225865E+01
5.33000000000E+08	-1.31815090647E+01	-4.03954653306E+01	-6.36456849351E-01	-1.33456704796E+02	-6.38127294488E-01	-1.33456429186E+02	-1.32110151731E+01	-4.46290547653E+01
5.33600000000E+08	-1.31730812195E+01	-4.06150453411E+01	-6.38242678221E-01	-1.33698299120E+02	-6.40048081972E-01	-1.33666143847E+02	-1.32048313028E+01	-4.48054110944E+01
5.34200000000E+08	-1.31573306190E+01	-4.08390887678E+01	-6.39445077618E-01	-1.33898374451E+02	-6.42736751161E-01	-1.33862215665E+02	-1.32013936524E+01	-4.50103899691E+01
5.34800000000E+08	-1.31424632309E+01	-4.10932965223E+01	-6.44228186783E-01	-1.34110617664E+02	-6.44173711888E-01	-1.34071615014E+02	-1.31936372053E+01	-4.51881951276E+01
5.35400000000E+08	-1.31285789441E+01	-4.13809354981E+01	-6.48876385015E-01	-1.34332322058E+02	-6.47386463149E-01	-1.34305286859E+02	-1.31856772980E+01	-4.54220992871E+01
5.36000000000E+08	-1.31174644489E+01	-4.16711631078E+01	-6.52365750399E-01	-1.34538001919E+02	-6.48927430206E-01	-1.34497750141E+02	-1.31737858461E+01	-4.56430116406E+01
5.36600000000E+08	-1.31088292890E+01	-4.19866745017E+01	-6.57340107268E-01	-1.34753412472E+02	-6.55817809257E-01	-1.34716585675E+02	-1.31641564025E+01	-4.59256324536E+01
5.37200000000E+08	-1.31014068422E+01	-4.23555540886E+01	-6.63003443623E-01	-1.34944593982E+02	-6.61216589611E-01	-1.34951139078E+02	-1.31512665935E+01	-4.62431809837E+01
5.37800000000E+08	-1.31062896439E+01	-4.27010647005E+01	-6.72712000189E-01	-1.35159950955E+02	-6.71321136634E-01	-1.35150453983E+02	-1.31444542738E+01	-4.66049389007E+01
5.38400000000E+08	-1.31135568673E+01	-4.30931930611E+01	-6.79507079180E-01	-1.35335571705E+02	-6.78293382051E-01	-1.35339947412E+02	-1.31475606858E+01	-4.70216442328E+01
5.39000000000E+08	-1.31358439577E+01	-4.34524519657E+01	-6.87998978513E-01	-1.35492726465E+02	-6.88829744584E-01	-1.35508722606E+02	-1.31646511179E+01	-4.74765512924E+01
5.39600000000E+08	-1.31699202605E+01	-4.37805296615E+01	-6.91780291900E-01	-1.35679877693E+02	-6.96463578274E-01	-1.35667511794E+02	-1.32054864373E+01	-4.77855169797E+01
5.40200000000E+08	-1.32021362439E+01	-4.39857594416E+01	-6.97206348597E-01	-1.35811821331E+02	-6.98201497662E-01	-1.35779640661E+02	-1.32453837288E+01	-4.80007489424E+01
5.40800000000E+08	-1.32331192166E+01	-4.41185791316E+01	-6.94662174656E-01	-1.35978671265E+02	-6.98053867653E-01	-1.35941788776E+02	-1.32805076032E+01	-4.81284763905E+01
5.41400000000E+08	-1.32559470787E+01	-4.42169094721E+01	-6.93664227145E-01	-1.36127260054E+02	-6.96271527771E-01	-1.36116807046E+02	-1.33158305881E+01	-4.81973636119E+01
5.42000000000E+08	-1.32721478469E+01	-4.42947615699E+01	-6.88087191915E-01	-1.36306916968E+02	-6.89093895427E-01	-1.36270297915E+02	-1.33273218413E+01	-4.81470521007E+01
5.42600000000E+08	-1.32790016253E+01	-4.43799217001E+01	-6.86410423986E-01	-1.36495619627E+02	-6.83785706075E-01	-1.36477866657E+02	-1.33296823973E+01	-4.81349708691E+01
5.43200000000E+08	-1.32811897632E+01	-4.44683049785E+01	-6.81219617748E-01	-1.36702910680E+02	-6.80463710267E-01	-1.36691418121E+02	-1.33148416610E+01	-4.81710927510E+01
5.43800000000E+08	-1.32828351472E+01	-4.45585653655E+01	-6.79676301967E-01	-1.36915648082E+02	-6.79229588336E-01	-1.36923245257E+02	-1.32886120151E+01	-4.82532267458E+01
5.44400000000E+08	-1.32789471498E+01	-4.46842789626E+01	-6.76633145149E-01	-1.37127886265E+02	-6.80974334703E-01	-1.37170636573E+02	-1.32587194949E+01	-4.84728090054E+01
5.45000000000E+08	-1.32752250415E+01	-4.48002237500E+01	-6.75461705260E-01	-1.37349857001E+02	-6.85873914771E-01	-1.37397729056E+02	-1.32435818179E+01	-4.87863966349E+01
5.45600000000E+08	-1.32650218215E+01	-4.49602735860E+01	-6.74181222146E-01	-1.37574751389E+02	-6.93359313280E-01	-1.37592006143E+02	-1.32320492780E+01	-4.91626932724E+01
5.46200000000E+08	-1.32584805209E+01	-4.51756157059E+01	-6.77602233981E-01	-1.37802036748E+02	-7.01066590895E-01	-1.37799779788E+02	-1.32390862107E+01	-4.95281849662E+01
5.46800000000E+08	-1.32534690688E+01	-4.53867639517E+01	-6.79834695627E-01	-1.38057681719E+02	-7.04914970697E-01	-1.37954958683E+02	-1.32613239960E+01	-4.98709606756E+01
5.47400000000E+08	-1.32536601280E+01	-4.56426660202E+01	-6.83129399861E-01	-1.38270818754E+02	-7.04354878484E-01	-1.38126060631E+02	-1.32903332382E+01	-5.01193214712E+01
5.48000000000E+08	-1.32585268452E+01	-4.58625276522E+01	-6.88302915769E-01	-1.38461904745E+02	-7.01156804767E-01	-1.38303203911E+02	-1.33165097441E+01	-5.03185068536E+01
5.48600000000E+08	-1.32666632797E+01	-4.60462701558E+01	-6.94657599876E-01	-1.38682171520E+02	-6.98082626168E-01	-1.38471410858E+02	-1.33459563449E+01	-5.04194814048E+01
5.49200000000E+08	-1.32683014176E+01	-4.62230207425E+01	-6.94446081023E-01	-1.38870932673E+02	-6.95236736781E-01	-1.38686703309E+02	-1.33628016839E+01	-5.04735911288E+01
5.49800000000E+08	-1.32666021007E+01	-4.63853795315E+01	-6.94206985940E-01	-1.39076181797E+02	-6.90075377352E-01	-1.38882528431E+02	-1.33691788345E+01	-5.04920364256E+01
5.50400000000E+08	-1.32650047967E+01	-4.65604758799E+01	-6.95329055482E-01	-1.39285857928E+02	-6.86083343260E-01	-1.39118704838E+02	-1.33700773133E+01	-5.05428678673E+01
5.51000000000E+08	-1.32627929494E+01	-4.67210239876E+01	-6.95773633608E-01	-1.39495373518E+02	-6.83719381425E-01	-1.39343955588E+02	-1.33604005660E+01	-5.05837364804E+01
5.51600000000E+08	-1.32589480672E+01	-4.68771481948E+01	-6.92763043838E-01	-1.39741403403E+02	-6.82948312104E-01	-1.39593124168E+02	-1.33473696942E+01	-5.06383912805E+01
5.52200000000E+08	-1.32494085436E+01	-4.70618894411E+01	-6.94329076027E-01	-1.39954942892E+02	-6.80194299421E-01	-1.39847139367E+02	-1.33188243792E+01	-5.07407214900E+01
5.52800000000E+08	-1.32357879004E+01	-4.72897282900E+01	-6.95235651453E-01	-1.40196004783E+02	-6.78701692371E-01	-1.40112667093E+02	-1.32849449466E+01	-5.09091835209E+01
5.53400000000E+08	-1.32232275837E+01	-4.75312544090E+01	-6.97760702433E-01	-1.40437078281E+02	-6.82372104546E-01	-1.40377434034E+02	-1.32555224405E+01	-5.11774471948E+01
5.54000000000E+08	-1.32123889335E+01	-4.78339293943E+01	-7.02069648226E-01	-1.40683902637E+02	-6.85582285429E-01	-1.40622460788E+02	-1.32299631979E+01	-5.14949387620E+01
5.54600000000E+08	-1.32059330421E+01	-4.81401845704E+01	-7.11224092281E-01	-1.40913467314E+02	-6.93847017594E-01	-1.40916105220E+02	-1.32165855487E+01	-5.18469270281E+01
5.55200000000E+08	-1.32135051995E+01	-4.84857266300E+01	-7.11517462655E-01	-1.41129738515E+02	-7.02513673770E-01	-1.41136411132E+02	-1.32066846579E+01	-5.22659300269E+01
5.55800000000E+08	-1.32173877036E+01	-4.87831725590E+01	-7.16118003628E-01	-1.41367313212E+02	-7.09967757016E-01	-1.41345120149E+02	-1.32098923570E+01	-5.26251352098E+01
5.56400000000E+08	-1.32191406672E+01	-4.90594874799E+01	-7.22202253720E-01	-1.41588503608E+02	-7.17346866841E-01	-1.41572193170E+02	-1.32219630881E+01	-5.29783238953E+01
5.57000000000E+08	-1.32245304985E+01	-4.93817143897E+01	-7.25964036588E-01	-1.41809239294E+02	-7.23542148230E-01	-1.41766531879E+02	-1.32309213417E+01	-5.32311553768E+01
5.57600000000E+08	-1.32346054986E+01	-4.96741985102E+01	-7.34035841845E-01	-1.42021800367E+02	-7.27083494052E-01	-1.42000718348E+02	-1.32314173099E+01	-5.34588129290E+01
5.58200000000E+08	-1.32509939633E+01	-5.00099223238E+01	-7.38186774705E-01	-1.42240077308E+02	-7.30253143306E-01	-1.42215707126E+02	-1.32288566586E+01	-5.36805400695E+01
5.58800000000E+08	-1.32753851217E+01	-5.02803834345E+01	-7.43735183499E-01	-1.42461395494E+02	-7.35222767602E-01	-1.42446197672E+02	-1.32227456662E+01	-5.39821783166E+01
5.59400000000E+08	-1.32895088408E+01	-5.04494599552E+01	-7.47552512886E-01	-1.42650643980E+02	-7.41272307558E-01	-1.42667356124E+02	-1.32169938576E+01	-5.42997377355E+01
5.60000000000E+08	-1.33066189135E+01	-5.06529445272E+01	-7.52035205607E-01	-1.42875951364E+02	-7.51631271033E-01	-1.42889099085E+02	-1.32118721285E+01	-5.46353869970E+01
5.60600000000E+08	-1.33152223039E+01	-5.08020528766E+01	-7.56860871844E-01	-1.43080888338E+02	-7.59654311936E-01	-1.43077942867E+02	-1.32126641391E+01	-5.50086907689E+01
5.61200000000E+08	-1.33177259845E+01	-5.09838790369E+01	-7.56981364317E-01	-1.43284644921E+02	-7.66462286405E-01	-1.43250749976E+02	-1.32237161959E+01	-5.53953127782E+01
5.61800000000E+08	-1.33213575096E+01	-5.11692862206E+01	-7.62904116970E-01	-1.43498138326E+02	-7.67544301427E-01	-1.43443403046E+02	-1.32521726601E+01	-5.57576526828E+01
5.62400000000E+08	-1.33236708236E+01	-5.14045163378E+01	-7.64780724247E-01	-1.43731787706E+02	-7.67505816492E-01	-1.43594000448E+02	-1.32819444181E+01	-5.60096786645E+01
5.63000000000E+08	-1.33281914074E+01	-5.16643921839E+01	-7.69021375538E-01	-1.43935800519E+02	-7.60340322548E-01	-1.43819769414E+02	-1.33035484730E+01	-5.61473459401E+01
5.63600000000E+08	-1.33363526415E+01	-5.19137249081E+01	-7.72467495884E-01	-1.44149928250E+02	-7.58263641418E-01	-1.44057556815E+02	-1.33111054001E+01	-5.62260169064E+01
5.64200000000E+08	-1.33495428482E+01	-5.21603348101E+01	-7.75069356907E-01	-1.44354045740E+02	-7.57346035973E-01	-1.44320660057E+02	-1.32942207374E+01	-5.63242793078E+01
5.64800000000E+08	-1.33656093791E+01	-5.23531466356E+01	-7.77426154376E-01	-1.44573324981E+02	-7.62178307413E-01	-1.44587323569E+02	-1.32823889459E+01	-5.65203235434E+01
5.65400000000E+08	-1.33845878741E+01	-5.24749017414E+01	-7.76248989347E-01	-1.44780602265E+02	-7.67580008733E-01	-1.44829535270E+02	-1.32631941870E+01	-5.68117831647E+01
5.66000000000E+08	-1.33896764716E+01	-5.25539000635E+01	-7.78488226643E-01	-1.45001304036E+02	-7.72438288234E-01	-1.45053576883E+02	-1.32504291209E+01	-5.71326091259E+01
5.66600000000E+08	-1.33897735504E+01	-5.26864544930E+01	-7.77662878443E-01	-1.45227961054E+02	-7.80096606132E-01	-1.45307245594E+02	-1.32405698255E+01	-5.74612633660E+01
5.67200000000E+08	-1.33844369051E+01	-5.28663078764E+01	-7.78596632740E-01	-1.45476495501E+02	-7.87872847906E-01	-1.45530318598E+02	-1.32293170997E+01	-5.78714201081E+01
5.67800000000E+08	-1.33807588217E+01	-5.29970688366E+01	-7.80646750335E-01	-1.45695365751E+02	-7.90608513999E-01	-1.45724190337E+02	-1.32397770048E+01	-5.82780353753E+01
5.68400000000E+08	-1.33791980401E+01	-5.31369726680E+01	-7.83910707132E-01	-1.45929116350E+02	-7.94480298727E-01	-1.45908608803E+02	-1.32637640935E+01	-5.86400684722E+01
