# Hz S DB R 50
! CMT, S5065, 24347010, 24.3.4/3
! Date: 10/15/2024 10:11:17 PM
! Data: Format (Calibration Info)
! Freq	S11:dB/Ang(F2)	S21:dB/Ang(F2)	S12:dB/Ang(F2)	S22:dB/Ang(F2)
5.00000000000E+08	-1.32697654557E+01	-3.08559381104E+01	-5.46739171794E-01	-1.23572258781E+02	-5.47276836246E-01	-1.23518159251E+02	-1.33038673063E+01	-3.32599357602E+01
5.00600000000E+08	-1.32494750800E+01	-3.11005796014E+01	-5.49826016450E-01	-1.23769768919E+02	-5.52012859535E-01	-1.23723041924E+02	-1.32872699598E+01	-3.35569146912E+01
5.01200000000E+08	-1.32445488101E+01	-3.13633128676E+01	-5.57000538598E-01	-1.23987129900E+02	-5.53466269530E-01	-1.23894732573E+02	-1.32754782832E+01	-3.38284718877E+01
5.01800000000E+08	-1.32427911517E+01	-3.16360465360E+01	-5.60399596011E-01	-1.24152627125E+02	-5.59175166068E-01	-1.24091797096E+02	-1.32673798062E+01	-3.40835706397E+01
5.02400000000E+08	-1.32415208581E+01	-3.18848548593E+01	-5.64368534742E-01	-1.24342153541E+02	-5.62428093018E-01	-1.24269283385E+02	-1.32620299802E+01	-3.43249872425E+01
5.03000000000E+08	-1.32442496486E+01	-3.20927104330E+01	-5.68376181883E-01	-1.24521996786E+02	-5.66541538435E-01	-1.24460037077E+02	-1.32553593210E+01	-3.45893582244E+01
5.03600000000E+08	-1.32391668258E+01	-3.23225292514E+01	-5.68825960673E-01	-1.24690156599E+02	-5.67828226842E-01	-1.24646126918E+02	-1.32473799890E+01	-3.48133481794E+01
5.04200000000E+08	-1.32370684136E+01	-3.25528715209E+01	-5.75232247319E-01	-1.24883381649E+02	-5.73567491369E-01	-1.24823227947E+02	-1.32411263363E+01	-3.50613061269E+01
5.04800000000E+08	-1.32352316405E+01	-3.28444276246E+01	-5.79602296285E-01	-1.25068886252E+02	-5.77377359137E-01	-1.25023862313E+02	-1.32284006807E+01	-3.53679189112E+01
5.05400000000E+08	-1.32359407118E+01	-3.31566789888E+01	-5.85217992513E-01	-1.25243400511E+02	-5.84505822555E-01	-1.25204536279E+02	-1.32240864857E+01	-3.57196518026E+01
5.06000000000E+08	-1.32515732049E+01	-3.34479236178E+01	-5.93028393017E-01	-1.25408470394E+02	-5.90928728650E-01	-1.25352549603E+02	-1.32280079888E+01	-3.60827394067E+01
5.06600000000E+08	-1.32711778699E+01	-3.36958331484E+01	-5.94810828637E-01	-1.25573377680E+02	-5.95661830228E-01	-1.25512901813E+02	-1.32429673440E+01	-3.63860766615E+01
5.07200000000E+08	-1.32903406993E+01	-3.38493838302E+01	-5.97683353001E-01	-1.25708443727E+02	-5.99003704886E-01	-1.25658184459E+02	-1.32625908249E+01	-3.66370834324E+01
5.07800000000E+08	-1.33037363739E+01	-3.39872159837E+01	-5.97604346283E-01	-1.25874013385E+02	-5.97015904070E-01	-1.25828772651E+02	-1.32769181588E+01	-3.68479631098E+01
5.08400000000E+08	-1.33174066674E+01	-3.40935985420E+01	-5.97866399291E-01	-1.26042903338E+02	-5.99042449889E-01	-1.25990703052E+02	-1.32931288443E+01	-3.70116251814E+01
5.09000000000E+08	-1.33193819954E+01	-3.41734737810E+01	-5.95262065067E-01	-1.26203096317E+02	-5.95284211569E-01	-1.26139777756E+02	-1.33002638438E+01	-3.71685104419E+01
5.09600000000E+08	-1.33197410658E+01	-3.42629459621E+01	-5.93936430680E-01	-1.26373071433E+02	-5.92982775497E-01	-1.26309270786E+02	-1.33024696181E+01	-3.72816717403E+01
5.10200000000E+08	-1.33119669798E+01	-3.43840430344E+01	-5.94420009620E-01	-1.26563794736E+02	-5.93418519763E-01	-1.26501494022E+02	-1.33043430480E+01	-3.73837673403E+01
5.10800000000E+08	-1.32988413661E+01	-3.45871058365E+01	-5.95263955854E-01	-1.26765919206E+02	-5.96287626544E-01	-1.26691816847E+02	-1.32949794361E+01	-3.75988784972E+01
5.11400000000E+08	-1.32933635027E+01	-3.47845439891E+01	-5.98836875882E-01	-1.26954162378E+02	-6.00211968567E-01	-1.26900603470E+02	-1.32846211564E+01	-3.78069852161E+01
5.12000000000E+08	-1.32968772221E+01	-3.50285763814E+01	-6.02679189785E-01	-1.27130173612E+02	-6.01381737135E-01	-1.27079619418E+02	-1.32846679269E+01	-3.80605899010E+01
5.12600000000E+08	-1.33078798741E+01	-3.52130664610E+01	-6.04446117201E-01	-1.27297471539E+02	-6.05354925294E-01	-1.27235514047E+02	-1.32923219040E+01	-3.83087695279E+01
5.13200000000E+08	-1.33143642439E+01	-3.53826911243E+01	-6.05932511753E-01	-1.27475746326E+02	-6.05611363746E-01	-1.27414447126E+02	-1.33014386758E+01	-3.84544231632E+01
5.13800000000E+08	-1.33167230222E+01	-3.54930659950E+01	-6.03638703523E-01	-1.27647796392E+02	-6.04190478020E-01	-1.27580211286E+02	-1.33075877268E+01	-3.86195722260E+01
5.14400000000E+08	-1.33195435823E+01	-3.56204409048E+01	-6.02757243748E-01	-1.27820319659E+02	-6.03551433040E-01	-1.27763021890E+02	-1.33032330728E+01	-3.87640897753E+01
5.15000000000E+08	-1.33153243991E+01	-3.57635757830E+01	-6.02960494636E-01	-1.28017660761E+02	-6.02476192103E-01	-1.27939895531E+02	-1.32992788201E+01	-3.89138871728E+01
5.15600000000E+08	-1.33096046053E+01	-3.58974825231E+01	-6.03022820395E-01	-1.28200217732E+02	-6.03630924882E-01	-1.28133772461E+02	-1.32919878564E+01	-3.90811320419E+01
5.16200000000E+08	-1.33052344109E+01	-3.60368932873E+01	-6.05065198015E-01	-1.28398110596E+02	-6.05185632673E-01	-1.28335458819E+02	-1.32817259119E+01	-3.92539907918E+01
5.16800000000E+08	-1.33003807047E+01	-3.61760913904E+01	-6.08231309192E-01	-1.28595853596E+02	-6.07753301101E-01	-1.28525898721E+02	-1.32769695260E+01	-3.94733053477E+01
5.17400000000E+08	-1.32965273435E+01	-3.63357582336E+01	-6.09133404254E-01	-1.28767409674E+02	-6.07208603338E-01	-1.28706492339E+02	-1.32734202962E+01	-3.97034922171E+01
5.18000000000E+08	-1.32900146747E+01	-3.64882486683E+01	-6.08975969343E-01	-1.28955419169E+02	-6.09037463683E-01	-1.28900855982E+02	-1.32706857137E+01	-3.98912416358E+01
5.18600000000E+08	-1.32790716573E+01	-3.66532643538E+01	-6.09332036978E-01	-1.29146717775E+02	-6.09583767595E-01	-1.29082472079E+02	-1.32698656893E+01	-4.00822840407E+01
5.19200000000E+08	-1.32660667851E+01	-3.67974955970E+01	-6.08165496940E-01	-1.29326794694E+02	-6.10730115495E-01	-1.29265815401E+02	-1.32605626257E+01	-4.02714338573E+01
5.19800000000E+08	-1.32575900890E+01	-3.70064318395E+01	-6.12943375959E-01	-1.29553034978E+02	-6.10319505120E-01	-1.29470545834E+02	-1.32573232436E+01	-4.05141995691E+01
5.20400000000E+08	-1.32544392685E+01	-3.72022836442E+01	-6.12668648416E-01	-1.29733044073E+02	-6.12394779280E-01	-1.29644814100E+02	-1.32557583903E+01	-4.06869269352E+01
5.21000000000E+08	-1.32515548618E+01	-3.74039464953E+01	-6.14348293582E-01	-1.29918973948E+02	-6.12733312523E-01	-1.29842232965E+02	-1.32536198642E+01	-4.08699517084E+01
5.21600000000E+08	-1.32375672146E+01	-3.75492473281E+01	-6.14801961415E-01	-1.30122761470E+02	-6.12601371089E-01	-1.30053908859E+02	-1.32451932641E+01	-4.10336232917E+01
5.22200000000E+08	-1.32306778688E+01	-3.77185596379E+01	-6.16906018865E-01	-1.30339353438E+02	-6.13805039665E-01	-1.30250227017E+02	-1.32338774583E+01	-4.11682241560E+01
5.22800000000E+08	-1.32116418930E+01	-3.79091869162E+01	-6.17917216971E-01	-1.30535924904E+02	-6.14344839057E-01	-1.30476465967E+02	-1.32165393475E+01	-4.13827961388E+01
5.23400000000E+08	-1.31953030277E+01	-3.81656735498E+01	-6.22659425196E-01	-1.30748830432E+02	-6.17721184253E-01	-1.30681166537E+02	-1.31922330267E+01	-4.16108053265E+01
5.24000000000E+08	-1.31754116342E+01	-3.85015403626E+01	-6.27164950658E-01	-1.30968820119E+02	-6.22600522563E-01	-1.30897158461E+02	-1.31736022449E+01	-4.19325153596E+01
5.24600000000E+08	-1.31700279630E+01	-3.88611260061E+01	-6.35842386961E-01	-1.31168590657E+02	-6.32702342200E-01	-1.31101954632E+02	-1.31602316525E+01	-4.23124761705E+01
5.25200000000E+08	-1.31841393179E+01	-3.92661178157E+01	-6.43260121326E-01	-1.31345432053E+02	-6.39697922242E-01	-1.31291245098E+02	-1.31658209263E+01	-4.27459456279E+01
5.25800000000E+08	-1.32123589589E+01	-3.95674644014E+01	-6.50488039887E-01	-1.31492960537E+02	-6.49526975726E-01	-1.31440819390E+02	-1.31853725045E+01	-4.30934821288E+01
5.26400000000E+08	-1.32468235289E+01	-3.97269098492E+01	-6.53933583590E-01	-1.31627521808E+02	-6.48916777735E-01	-1.31557679714E+02	-1.32151834519E+01	-4.33268476270E+01
5.27000000000E+08	-1.32654040175E+01	-3.97404473904E+01	-6.50578211603E-01	-1.31784420405E+02	-6.46288653735E-01	-1.31738131572E+02	-1.32318167325E+01	-4.34327643071E+01
5.27600000000E+08	-1.32631462992E+01	-3.97310077211E+01	-6.47702109797E-01	-1.31986339735E+02	-6.44641448266E-01	-1.31924473189E+02	-1.32346869464E+01	-4.35383933172E+01
5.28200000000E+08	-1.32549927881E+01	-3.98331466467E+01	-6.45960535372E-01	-1.32173824324E+02	-6.45539642198E-01	-1.32141428660E+02	-1.32274196724E+01	-4.37033818177E+01
5.28800000000E+08	-1.32312190373E+01	-4.00095166896E+01	-6.46064329204E-01	-1.32384032540E+02	-6.45125998974E-01	-1.32337622275E+02	-1.32179656649E+01	-4.39113528125E+01
5.29400000000E+08	-1.32226336369E+01	-4.02035593656E+01	-6.48635789713E-01	-1.32581111246E+02	-6.47230228978E-01	-1.32534373719E+02	-1.32155864940E+01	-4.41458290885E+01
5.30000000000E+08	-1.32186685295E+01	-4.04463626039E+01	-6.54827165226E-01	-1.32795232947E+02	-6.52630949857E-01	-1.32716318888E+02	-1.32152817542E+01	-4.43900535482E+01
5.30600000000E+08	-1.32169170039E+01	-4.06589645595E+01	-6.53743698159E-01	-1.32963191729E+02	-6.54041567913E-01	-1.32905036022E+02	-1.32216995869E+01	-4.46317710327E+01
5.31200000000E+08	-1.32176935605E+01	-4.08705745889E+01	-6.56361308745E-01	-1.33163530605E+02	-6.56161465698E-01	-1.33095519820E+02	-1.32262161062E+01	-4.48542098323E+01
5.31800000000E+08	-1.32197174075E+01	-4.09839917557E+01	-6.55467000515E-01	-1.33347382812E+02	-6.54415096651E-01	-1.33282849847E+02	-1.32317020245E+01	-4.50517827148E+01
5.32400000000E+08	-1.32131897840E+01	-4.11885717721E+01	-6.57928291204E-01	-1.33548875490E+02	-6.55373333500E-01	-1.33464662868E+02	-1.32379171091E+01	-4.52040103664E+01
5.33000000000E+08	-1.31952968903E+01	-4.13498263036E+01	-6.58111603435E-01	-1.33727467174E+02	-6.58332277857E-01	-1.33666551828E+02	-1.32406815617E+01	-4.53828688163E+01
5.33600000000E+08	-1.31917271709E+01	-4.16114755063E+01	-6.61370817348E-01	-1.33951691112E+02	-6.60262114867E-01	-1.33873485269E+02	-1.32354503017E+01	-4.55648003166E+01
5.34200000000E+08	-1.31897689888E+01	-4.18647536180E+01	-6.62528398570E-01	-1.34157486014E+02	-6.60278549695E-01	-1.34070065486E+02	-1.32326530653E+01	-4.57558153681E+01
5.34800000000E+08	-1.31929196183E+01	-4.20787820379E+01	-6.66246733230E-01	-1.34338074049E+02	-6.64195166845E-01	-1.34266667420E+02	-1.32352172655E+01	-4.59169964969E+01
5.35400000000E+08	-1.31888616533E+01	-4.22963044314E+01	-6.66564255936E-01	-1.34539340856E+02	-6.63087329810E-01	-1.34491164063E+02	-1.32325015382E+01	-4.60657447900E+01
5.36000000000E+08	-1.31879153100E+01	-4.24917413710E+01	-6.66319957464E-01	-1.34740572998E+02	-6.61760079425E-01	-1.34683009143E+02	-1.32241888271E+01	-4.62141347603E+01
5.36600000000E+08	-1.31780249788E+01	-4.26861390613E+01	-6.67601193303E-01	-1.34963082604E+02	-6.65174437703E-01	-1.34889526944E+02	-1.32121944662E+01	-4.63827916066E+01
5.37200000000E+08	-1.31681025072E+01	-4.29290940786E+01	-6.70427708022E-01	-1.35157956294E+02	-6.67157774567E-01	-1.35116380627E+02	-1.31934748810E+01	-4.66074963071E+01
5.37800000000E+08	-1.31621507186E+01	-4.31964295082E+01	-6.74298558834E-01	-1.35402029024E+02	-6.70704536060E-01	-1.35346521279E+02	-1.31744347066E+01	-4.68666188462E+01
5.38400000000E+08	-1.31573635541E+01	-4.35066935925E+01	-6.80569604291E-01	-1.35611663261E+02	-6.74760783712E-01	-1.35532411047E+02	-1.31636003166E+01	-4.71722397519E+01
5.39000000000E+08	-1.31640039115E+01	-4.37995841073E+01	-6.86085525325E-01	-1.35802492949E+02	-6.82404514451E-01	-1.35749169603E+02	-1.31533510156E+01	-4.75499171888E+01
5.39600000000E+08	-1.31740214735E+01	-4.41001657062E+01	-6.89698984844E-01	-1.36008607242E+02	-6.87872516402E-01	-1.35965834518E+02	-1.31526149722E+01	-4.78655733001E+01
5.40200000000E+08	-1.31817978389E+01	-4.43613495297E+01	-6.96382616863E-01	-1.36185103609E+02	-6.93147956236E-01	-1.36139766958E+02	-1.31587304257E+01	-4.82095405553E+01
5.40800000000E+08	-1.32017019521E+01	-4.46306474155E+01	-7.02600182302E-01	-1.36393730883E+02	-6.99749831610E-01	-1.36334243583E+02	-1.31669576004E+01	-4.85500882327E+01
5.41400000000E+08	-1.32178754108E+01	-4.48085545709E+01	-7.04434456618E-01	-1.36551235997E+02	-7.03159053924E-01	-1.36527669232E+02	-1.31872109854E+01	-4.88521671795E+01
5.42000000000E+08	-1.32340386304E+01	-4.49861085365E+01	-7.05605248449E-01	-1.36737302520E+02	-7.05589747740E-01	-1.36706245739E+02	-1.32038995635E+01	-4.90815766582E+01
5.42600000000E+08	-1.32402613918E+01	-4.51365825341E+01	-7.07135325151E-01	-1.36935070345E+02	-7.07164997714E-01	-1.36880997664E+02	-1.32184266070E+01	-4.92992208278E+01
5.43200000000E+08	-1.32373495272E+01	-4.52852930570E+01	-7.07755246014E-01	-1.37129485898E+02	-7.07943352221E-01	-1.37073377374E+02	-1.32270433122E+01	-4.95009766068E+01
5.43800000000E+08	-1.32370678792E+01	-4.54568492436E+01	-7.09038272703E-01	-1.37340060658E+02	-7.11238360843E-01	-1.37276347554E+02	-1.32303167804E+01	-4.97317264895E+01
5.44400000000E+08	-1.32367321159E+01	-4.56733302556E+01	-7.10326934280E-01	-1.37527766545E+02	-7.12975919410E-01	-1.37473957833E+02	-1.32391834034E+01	-4.99714988219E+01
5.45000000000E+08	-1.32449823871E+01	-4.58702750694E+01	-7.13921731287E-01	-1.37739705706E+02	-7.13053664469E-01	-1.37663244006E+02	-1.32588643212E+01	-5.01827997628E+01
5.45600000000E+08	-1.32434215582E+01	-4.60375467176E+01	-7.15927848603E-01	-1.37928917858E+02	-7.12147386874E-01	-1.37854424513E+02	-1.32669674097E+01	-5.03722902323E+01
5.46200000000E+08	-1.32404743753E+01	-4.62350905700E+01	-7.16652399606E-01	-1.38132020839E+02	-7.15577082621E-01	-1.38085538360E+02	-1.32692782955E+01	-5.05066738473E+01
5.46800000000E+08	-1.32337792372E+01	-4.64151576875E+01	-7.17646770563E-01	-1.38358872800E+02	-7.18181433187E-01	-1.38305951689E+02	-1.32725676048E+01	-5.06801087675E+01
5.47400000000E+08	-1.32273962127E+01	-4.67005474759E+01	-7.22407477181E-01	-1.38588065253E+02	-7.17322904897E-01	-1.38514531724E+02	-1.32677544384E+01	-5.08665828603E+01
5.48000000000E+08	-1.32179013910E+01	-4.69997118111E+01	-7.24557528391E-01	-1.38796159308E+02	-7.20471846748E-01	-1.38737526913E+02	-1.32573591884E+01	-5.10793180566E+01
5.48600000000E+08	-1.32162199559E+01	-4.73035164113E+01	-7.32484336959E-01	-1.39023537964E+02	-7.25491752904E-01	-1.38962036669E+02	-1.32493775546E+01	-5.13668780140E+01
5.49200000000E+08	-1.32176977521E+01	-4.76881147034E+01	-7.37981404117E-01	-1.39246926182E+02	-7.34367098960E-01	-1.39189576889E+02	-1.32416618560E+01	-5.17124736651E+01
5.49800000000E+08	-1.32239526779E+01	-4.80551920173E+01	-7.46614956395E-01	-1.39449733422E+02	-7.42066029953E-01	-1.39390658397E+02	-1.32430301091E+01	-5.20969531172E+01
5.50400000000E+08	-1.32406813195E+01	-4.84457830277E+01	-7.52954218016E-01	-1.39635066841E+02	-7.53324401138E-01	-1.39582956672E+02	-1.32585420613E+01	-5.25039601695E+01
5.51000000000E+08	-1.32713087629E+01	-4.88205380856E+01	-7.63558883760E-01	-1.39806995045E+02	-7.61450880128E-01	-1.39753446005E+02	-1.32847460642E+01	-5.29045310388E+01
5.51600000000E+08	-1.33072994860E+01	-4.91311284919E+01	-7.68704053583E-01	-1.39980131480E+02	-7.69786521853E-01	-1.39908849139E+02	-1.33265207323E+01	-5.32355793962E+01
5.52200000000E+08	-1.33515554514E+01	-4.94231641158E+01	-7.74766455683E-01	-1.40116996730E+02	-7.71116712125E-01	-1.40047324257E+02	-1.33685171216E+01	-5.34758111845E+01
5.52800000000E+08	-1.34081845659E+01	-4.96388632925E+01	-7.75822131539E-01	-1.40251678368E+02	-7.71817887456E-01	-1.40188040238E+02	-1.34099440204E+01	-5.35886526098E+01
5.53400000000E+08	-1.34636953577E+01	-4.96862046726E+01	-7.70408196052E-01	-1.40394151637E+02	-7.69022114637E-01	-1.40348338996E+02	-1.34501549505E+01	-5.36426472577E+01
5.54000000000E+08	-1.35067027501E+01	-4.96147287039E+01	-7.62442604950E-01	-1.40565226357E+02	-7.59434421064E-01	-1.40490276701E+02	-1.34757421273E+01	-5.36183384660E+01
5.54600000000E+08	-1.35270121982E+01	-4.94403832706E+01	-7.55946004846E-01	-1.40731670065E+02	-7.53160494374E-01	-1.40715819076E+02	-1.34913512671E+01	-5.35408865958E+01
5.55200000000E+08	-1.35380968622E+01	-4.93068767360E+01	-7.44308124531E-01	-1.40966522228E+02	-7.42833511091E-01	-1.40919533135E+02	-1.34872394967E+01	-5.35227145047E+01
5.55800000000E+08	-1.35241402859E+01	-4.91860344983E+01	-7.38180407423E-01	-1.41218508271E+02	-7.34195882835E-01	-1.41155557349E+02	-1.34705801650E+01	-5.34935980452E+01
5.56400000000E+08	-1.34934105524E+01	-4.91376516478E+01	-7.33276549512E-01	-1.41477713244E+02	-7.31036829379E-01	-1.41428947448E+02	-1.34490995759E+01	-5.35755160851E+01
5.57000000000E+08	-1.34554030264E+01	-4.92262950482E+01	-7.30677264927E-01	-1.41745409237E+02	-7.28976101527E-01	-1.41686161371E+02	-1.34208174953E+01	-5.37069912936E+01
5.57600000000E+08	-1.34219643849E+01	-4.94082089657E+01	-7.33822910336E-01	-1.42009909800E+02	-7.31793510797E-01	-1.41966120956E+02	-1.33917797617E+01	-5.39142335356E+01
5.58200000000E+08	-1.33955024546E+01	-4.97049251974E+01	-7.36653220300E-01	-1.42265398636E+02	-7.36398609919E-01	-1.42226380433E+02	-1.33718347049E+01	-5.41770795767E+01
5.58800000000E+08	-1.33828532254E+01	-5.00251699732E+01	-7.42861130779E-01	-1.42539080648E+02	-7.41256908114E-01	-1.42460043218E+02	-1.33561428948E+01	-5.44565741483E+01
5.59400000000E+08	-1.33723125016E+01	-5.03245649600E+01	-7.48101655699E-01	-1.42756695509E+02	-7.46435664886E-01	-1.42690096497E+02	-1.33407998188E+01	-5.47655672471E+01
5.60000000000E+08	-1.33801477410E+01	-5.06563328132E+01	-7.55451100373E-01	-1.42985087880E+02	-7.52435355703E-01	-1.42923744839E+02	-1.33270469806E+01	-5.50820357406E+01
5.60600000000E+08	-1.33899086960E+01	-5.08890523617E+01	-7.60199779217E-01	-1.43200055168E+02	-7.55968027799E-01	-1.43131319969E+02	-1.33202808131E+01	-5.53915450813E+01
5.61200000000E+08	-1.34005063640E+01	-5.10511653656E+01	-7.63092016714E-01	-1.43411262597E+02	-7.60917046585E-01	-1.43356303890E+02	-1.33140375913E+01	-5.57022876970E+01
5.61800000000E+08	-1.34053912689E+01	-5.11565471635E+01	-7.68087364786E-01	-1.43633902446E+02	-7.62888330848E-01	-1.43590045168E+02	-1.33157341584E+01	-5.60532905756E+01
5.62400000000E+08	-1.33890972054E+01	-5.12694023430E+01	-7.66789756248E-01	-1.43861191926E+02	-7.67711984861E-01	-1.43786636128E+02	-1.33154634638E+01	-5.64249831321E+01
5.63000000000E+08	-1.33681980889E+01	-5.14611439078E+01	-7.72505019310E-01	-1.44090328619E+02	-7.68685841448E-01	-1.44016004009E+02	-1.33232501826E+01	-5.67551818141E+01
5.63600000000E+08	-1.33487458886E+01	-5.17640857764E+01	-7.74928625386E-01	-1.44321265199E+02	-7.72441782437E-01	-1.44255860546E+02	-1.33346236916E+01	-5.70581596056E+01
5.64200000000E+08	-1.33368482678E+01	-5.20842291632E+01	-7.77898377045E-01	-1.44538622212E+02	-7.74760253814E-01	-1.44473346801E+02	-1.33405800560E+01	-5.73334015233E+01
5.64800000000E+08	-1.33358246425E+01	-5.24402660353E+01	-7.81927516116E-01	-1.44775348184E+02	-7.79393368657E-01	-1.44717605231E+02	-1.33560051505E+01	-5.75644522714E+01
5.65400000000E+08	-1.33432392875E+01	-5.27730165375E+01	-7.83828216961E-01	-1.45000954247E+02	-7.83150934583E-01	-1.44938621571E+02	-1.33584059411E+01	-5.78366372651E+01
5.66000000000E+08	-1.33567098069E+01	-5.30428548959E+01	-7.89072830767E-01	-1.45220681005E+02	-7.85808056188E-01	-1.45142274612E+02	-1.33632535554E+01	-5.80973811934E+01
5.66600000000E+08	-1.33727498295E+01	-5.32962738698E+01	-7.90031657295E-01	-1.45421332778E+02	-7.90534539300E-01	-1.45378130056E+02	-1.33743799552E+01	-5.83486547442E+01
5.67200000000E+08	-1.33830727263E+01	-5.34793909846E+01	-7.90890985170E-01	-1.45658147465E+02	-7.91021320066E-01	-1.45604372056E+02	-1.33794954158E+01	-5.85944104618E+01
5.67800000000E+08	-1.33841895056E+01	-5.36188477462E+01	-7.89994277058E-01	-1.45877088539E+02	-7.88067861096E-01	-1.45827009613E+02	-1.33893245929E+01	-5.87775157837E+01
5.68400000000E+08	-1.33831666566E+01	-5.37641990758E+01	-7.93534854100E-01	-1.46112517078E+02	-7.88819131408E-01	-1.46078926229E+02	-1.33897290813E+01	-5.89295365568E+01
