# Hz S DB R 50
! CMT, S5065, 24347010, 24.3.4/3
! Date: 10/15/2024 10:10:52 PM
! Data: Format (Calibration Info)
! Freq	S11:dB/Ang(F2)	S21:dB/Ang(F2)	S12:dB/Ang(F2)	S22:dB/Ang(F2)
5.00000000000E+08	-1.32734021344E+01	-3.08299003611E+01	-5.47801273521E-01	-1.23570788556E+02	-5.47769390077E-01	-1.23540804448E+02	-1.32959781127E+01	-3.32898539298E+01
5.00600000000E+08	-1.32550606605E+01	-3.10532816840E+01	-5.50626687113E-01	-1.23754063556E+02	-5.51529450872E-01	-1.23714240385E+02	-1.32815769188E+01	-3.35485645708E+01
5.01200000000E+08	-1.32478434839E+01	-3.13049283938E+01	-5.56877816471E-01	-1.23965374830E+02	-5.55274884766E-01	-1.23906630696E+02	-1.32698618029E+01	-3.38479226388E+01
5.01800000000E+08	-1.32388065749E+01	-3.15694533805E+01	-5.59171761198E-01	-1.24145241658E+02	-5.60911485266E-01	-1.24096277805E+02	-1.32566830633E+01	-3.41098066437E+01
5.02400000000E+08	-1.32351908300E+01	-3.18191808642E+01	-5.62702420932E-01	-1.24342727923E+02	-5.66848560223E-01	-1.24290545565E+02	-1.32490223095E+01	-3.43759295054E+01
5.03000000000E+08	-1.32343270408E+01	-3.20745152588E+01	-5.69015773568E-01	-1.24517789452E+02	-5.70939709852E-01	-1.24474588665E+02	-1.32404355291E+01	-3.46715182824E+01
5.03600000000E+08	-1.32310593252E+01	-3.23824356886E+01	-5.71633957991E-01	-1.24718756872E+02	-5.72987668493E-01	-1.24659479303E+02	-1.32309462166E+01	-3.49580423246E+01
5.04200000000E+08	-1.32333287917E+01	-3.26773283375E+01	-5.78646081532E-01	-1.24900355744E+02	-5.80057374287E-01	-1.24826134077E+02	-1.32314894313E+01	-3.52727961191E+01
5.04800000000E+08	-1.32430887685E+01	-3.29688190326E+01	-5.83473983866E-01	-1.25049935957E+02	-5.86907387275E-01	-1.25012834381E+02	-1.32297263900E+01	-3.56187965687E+01
5.05400000000E+08	-1.32540578155E+01	-3.32645714379E+01	-5.91571996097E-01	-1.25210957985E+02	-5.89707241563E-01	-1.25165373944E+02	-1.32354485684E+01	-3.59520416014E+01
5.06000000000E+08	-1.32751204667E+01	-3.34857239338E+01	-5.97586339912E-01	-1.25376629785E+02	-5.96693727290E-01	-1.25325049464E+02	-1.32436017722E+01	-3.62951562143E+01
5.06600000000E+08	-1.32919087406E+01	-3.36997271665E+01	-5.98160527036E-01	-1.25525242479E+02	-6.00909162686E-01	-1.25479859442E+02	-1.32633545715E+01	-3.65771355048E+01
5.07200000000E+08	-1.33118233598E+01	-3.38745338202E+01	-5.99369849509E-01	-1.25667653106E+02	-6.03169527672E-01	-1.25626592223E+02	-1.32841464691E+01	-3.68659692558E+01
5.07800000000E+08	-1.33319359700E+01	-3.39890507637E+01	-6.01535241653E-01	-1.25821113647E+02	-6.04559456972E-01	-1.25776513584E+02	-1.33094526286E+01	-3.71044125097E+01
5.08400000000E+08	-1.33485604783E+01	-3.40662711120E+01	-5.97402354842E-01	-1.25964037343E+02	-6.03228070569E-01	-1.25908858826E+02	-1.33386434894E+01	-3.72295339581E+01
5.09000000000E+08	-1.33571398159E+01	-3.41026851075E+01	-5.96806378477E-01	-1.26129816950E+02	-6.01046368273E-01	-1.26049960900E+02	-1.33591571689E+01	-3.73012376946E+01
5.09600000000E+08	-1.33586557306E+01	-3.41209061339E+01	-5.91871196606E-01	-1.26288369432E+02	-5.96685212386E-01	-1.26219622120E+02	-1.33683391975E+01	-3.73291967559E+01
5.10200000000E+08	-1.33469942837E+01	-3.41485157408E+01	-5.87899011905E-01	-1.26504011979E+02	-5.91365609518E-01	-1.26405135088E+02	-1.33686059290E+01	-3.73423880420E+01
5.10800000000E+08	-1.33290304974E+01	-3.42829275081E+01	-5.86399675205E-01	-1.26701415858E+02	-5.89714675193E-01	-1.26608473099E+02	-1.33567603837E+01	-3.74705965317E+01
5.11400000000E+08	-1.33117028555E+01	-3.44212884094E+01	-5.86396126486E-01	-1.26907264031E+02	-5.89732989603E-01	-1.26811755630E+02	-1.33405893840E+01	-3.76109012120E+01
5.12000000000E+08	-1.33008230513E+01	-3.46176897523E+01	-5.90834240806E-01	-1.27106825371E+02	-5.88910059913E-01	-1.27001635884E+02	-1.33351781764E+01	-3.77850198371E+01
5.12600000000E+08	-1.32915101039E+01	-3.48213086854E+01	-5.90418952091E-01	-1.27286505149E+02	-5.90437571060E-01	-1.27187488559E+02	-1.33327739248E+01	-3.79553608369E+01
5.13200000000E+08	-1.32825347036E+01	-3.50472369532E+01	-5.93125485990E-01	-1.27490634398E+02	-5.92242583469E-01	-1.27388943017E+02	-1.33260915013E+01	-3.80683693908E+01
5.13800000000E+08	-1.32796231207E+01	-3.52243408332E+01	-5.93267236339E-01	-1.27672890471E+02	-5.91530573760E-01	-1.27590107132E+02	-1.33168505422E+01	-3.82662093386E+01
5.14400000000E+08	-1.32784888947E+01	-3.54177512386E+01	-5.95781322984E-01	-1.27864068375E+02	-5.92282093161E-01	-1.27766158414E+02	-1.33023504872E+01	-3.84343941766E+01
5.15000000000E+08	-1.32703872085E+01	-3.56145068680E+01	-5.96047506265E-01	-1.28058655044E+02	-5.93516719621E-01	-1.27986875566E+02	-1.32900268587E+01	-3.86158206979E+01
5.15600000000E+08	-1.32629112324E+01	-3.58000150615E+01	-6.00053178519E-01	-1.28246352516E+02	-5.97210979648E-01	-1.28171541467E+02	-1.32779824189E+01	-3.88411847944E+01
5.16200000000E+08	-1.32546270833E+01	-3.60060418456E+01	-6.02627995961E-01	-1.28442692869E+02	-6.00862974347E-01	-1.28374334609E+02	-1.32668876641E+01	-3.90819579701E+01
5.16800000000E+08	-1.32513634170E+01	-3.62397439741E+01	-6.06381713299E-01	-1.28647915391E+02	-6.05062986378E-01	-1.28573827655E+02	-1.32605462714E+01	-3.93358347192E+01
5.17400000000E+08	-1.32513559980E+01	-3.64900622088E+01	-6.09793451777E-01	-1.28809347976E+02	-6.07418362042E-01	-1.28733433383E+02	-1.32579115629E+01	-3.96045070230E+01
5.18000000000E+08	-1.32614997086E+01	-3.67276969737E+01	-6.12526551670E-01	-1.28997354409E+02	-6.09933867866E-01	-1.28913403710E+02	-1.32598154340E+01	-3.98224408369E+01
5.18600000000E+08	-1.32693133633E+01	-3.68604325107E+01	-6.11837889967E-01	-1.29162316006E+02	-6.11096246258E-01	-1.29086298062E+02	-1.32637869826E+01	-4.00534885833E+01
5.19200000000E+08	-1.32752744376E+01	-3.69875159240E+01	-6.14198884770E-01	-1.29348768087E+02	-6.07768659466E-01	-1.29254745077E+02	-1.32608729160E+01	-4.02335278195E+01
5.19800000000E+08	-1.32643847615E+01	-3.70826413544E+01	-6.11250217110E-01	-1.29521594486E+02	-6.09376866305E-01	-1.29460308885E+02	-1.32603414265E+01	-4.04101371782E+01
5.20400000000E+08	-1.32589090344E+01	-3.72106040162E+01	-6.12085018134E-01	-1.29721592291E+02	-6.09793205716E-01	-1.29653689969E+02	-1.32555076822E+01	-4.05651191359E+01
5.21000000000E+08	-1.32469892232E+01	-3.74037835877E+01	-6.13493710288E-01	-1.29925297090E+02	-6.08658042670E-01	-1.29848667265E+02	-1.32439743330E+01	-4.07375191661E+01
5.21600000000E+08	-1.32316764418E+01	-3.76038841865E+01	-6.15016227707E-01	-1.30140953068E+02	-6.11614951485E-01	-1.30061848112E+02	-1.32350954334E+01	-4.09445015907E+01
5.22200000000E+08	-1.32237302291E+01	-3.78047277855E+01	-6.16503759698E-01	-1.30328116306E+02	-6.10867724774E-01	-1.30271861936E+02	-1.32228809804E+01	-4.11328396188E+01
5.22800000000E+08	-1.32149892502E+01	-3.80180315447E+01	-6.19978722645E-01	-1.30523219320E+02	-6.12944820882E-01	-1.30472360611E+02	-1.32059460019E+01	-4.13521773083E+01
5.23400000000E+08	-1.32066524808E+01	-3.82402173024E+01	-6.24002120506E-01	-1.30736750198E+02	-6.17444853778E-01	-1.30674002184E+02	-1.31854047191E+01	-4.15988535838E+01
5.24000000000E+08	-1.31918082121E+01	-3.85134261206E+01	-6.28492152136E-01	-1.30940427346E+02	-6.23151772278E-01	-1.30903890011E+02	-1.31726106162E+01	-4.19270235044E+01
5.24600000000E+08	-1.31832185714E+01	-3.88248269717E+01	-6.34281225843E-01	-1.31145743912E+02	-6.30837307843E-01	-1.31090087255E+02	-1.31630068913E+01	-4.22694314280E+01
5.25200000000E+08	-1.31935803396E+01	-3.91752764577E+01	-6.41805100170E-01	-1.31313521327E+02	-6.38267185391E-01	-1.31266902464E+02	-1.31723652098E+01	-4.26933680583E+01
5.25800000000E+08	-1.32171070247E+01	-3.94695161562E+01	-6.48564669017E-01	-1.31475939135E+02	-6.47401382273E-01	-1.31435982830E+02	-1.31885973304E+01	-4.30274681280E+01
5.26400000000E+08	-1.32415722123E+01	-3.96313066279E+01	-6.48417588379E-01	-1.31619951820E+02	-6.47020997343E-01	-1.31565888077E+02	-1.32143964905E+01	-4.32844837445E+01
5.27000000000E+08	-1.32528855151E+01	-3.96751547638E+01	-6.46923066491E-01	-1.31781808022E+02	-6.44576326932E-01	-1.31733672571E+02	-1.32339056168E+01	-4.33786022622E+01
5.27600000000E+08	-1.32487540103E+01	-3.97396080970E+01	-6.45303766125E-01	-1.31980858300E+02	-6.43436440272E-01	-1.31920645140E+02	-1.32366270450E+01	-4.34974151345E+01
5.28200000000E+08	-1.32423839339E+01	-3.98868810827E+01	-6.45799328369E-01	-1.32182121405E+02	-6.44666810928E-01	-1.32128016202E+02	-1.32315098172E+01	-4.36571258032E+01
5.28800000000E+08	-1.32340239137E+01	-4.00889150968E+01	-6.47424482172E-01	-1.32380136564E+02	-6.42959129968E-01	-1.32313698318E+02	-1.32242138733E+01	-4.38417221407E+01
5.29400000000E+08	-1.32296732086E+01	-4.02787740724E+01	-6.48613505510E-01	-1.32585221861E+02	-6.46751957874E-01	-1.32525579872E+02	-1.32254343842E+01	-4.40650199500E+01
5.30000000000E+08	-1.32269275619E+01	-4.04716620416E+01	-6.54075263888E-01	-1.32784590530E+02	-6.48561747594E-01	-1.32698265387E+02	-1.32225129687E+01	-4.42967203210E+01
5.30600000000E+08	-1.32278830274E+01	-4.06643411950E+01	-6.52492015721E-01	-1.32956803735E+02	-6.50020584650E-01	-1.32883034653E+02	-1.32260607217E+01	-4.45352354961E+01
5.31200000000E+08	-1.32273719661E+01	-4.08444498419E+01	-6.54083348685E-01	-1.33153331281E+02	-6.54412328273E-01	-1.33078338595E+02	-1.32355336480E+01	-4.47517136071E+01
5.31800000000E+08	-1.32269010685E+01	-4.09274557503E+01	-6.52758246829E-01	-1.33336637248E+02	-6.49664783202E-01	-1.33265335443E+02	-1.32403649892E+01	-4.49203013399E+01
5.32400000000E+08	-1.32179315347E+01	-4.11098001335E+01	-6.54017134833E-01	-1.33535555126E+02	-6.50090030123E-01	-1.33479208525E+02	-1.32408375004E+01	-4.50646367985E+01
5.33000000000E+08	-1.31955432424E+01	-4.13253988067E+01	-6.57029922820E-01	-1.33748977538E+02	-6.52184117107E-01	-1.33688705609E+02	-1.32380943620E+01	-4.52716746652E+01
5.33600000000E+08	-1.31922448396E+01	-4.16070394743E+01	-6.59462835629E-01	-1.33945005046E+02	-6.56045988658E-01	-1.33870647934E+02	-1.32366117542E+01	-4.54419048259E+01
5.34200000000E+08	-1.31980939909E+01	-4.18786005995E+01	-6.62383561715E-01	-1.34135494091E+02	-6.54900913228E-01	-1.34069444019E+02	-1.32372529917E+01	-4.55975815599E+01
5.34800000000E+08	-1.32050363862E+01	-4.20708763140E+01	-6.64105821278E-01	-1.34318412663E+02	-6.58017967783E-01	-1.34253152003E+02	-1.32375806029E+01	-4.57312685574E+01
5.35400000000E+08	-1.32055595078E+01	-4.22764140264E+01	-6.63633922027E-01	-1.34522902087E+02	-6.57469488080E-01	-1.34493441679E+02	-1.32273462849E+01	-4.58873178986E+01
5.36000000000E+08	-1.32062099542E+01	-4.24312371139E+01	-6.61807668633E-01	-1.34731681731E+02	-6.57287052622E-01	-1.34686561832E+02	-1.32152854878E+01	-4.60495086758E+01
5.36600000000E+08	-1.32010580568E+01	-4.25789811368E+01	-6.63358382222E-01	-1.34941572667E+02	-6.61000597008E-01	-1.34908063760E+02	-1.32035011133E+01	-4.62592776171E+01
5.37200000000E+08	-1.31900854098E+01	-4.27765823265E+01	-6.63459186999E-01	-1.35142364233E+02	-6.63390893592E-01	-1.35121465037E+02	-1.31897299213E+01	-4.64812532057E+01
5.37800000000E+08	-1.31867114071E+01	-4.29764110263E+01	-6.66939216829E-01	-1.35380608583E+02	-6.66143078057E-01	-1.35329231528E+02	-1.31754745037E+01	-4.67208448873E+01
5.38400000000E+08	-1.31751050816E+01	-4.32186173302E+01	-6.70091236947E-01	-1.35581204625E+02	-6.69694826932E-01	-1.35546543686E+02	-1.31642177717E+01	-4.70008840022E+01
5.39000000000E+08	-1.31720149224E+01	-4.34477320450E+01	-6.74842981688E-01	-1.35791576401E+02	-6.76495577659E-01	-1.35755850586E+02	-1.31571063027E+01	-4.73214206720E+01
5.39600000000E+08	-1.31707416109E+01	-4.37080586778E+01	-6.76502574226E-01	-1.36021770784E+02	-6.78741991539E-01	-1.35977231178E+02	-1.31538042793E+01	-4.75864940752E+01
5.40200000000E+08	-1.31658809821E+01	-4.39486037129E+01	-6.82402868204E-01	-1.36215348334E+02	-6.82496446384E-01	-1.36157083953E+02	-1.31509552030E+01	-4.78833669228E+01
5.40800000000E+08	-1.31666633697E+01	-4.41756614979E+01	-6.84862563455E-01	-1.36429848555E+02	-6.87715248451E-01	-1.36360854464E+02	-1.31504066217E+01	-4.81556648531E+01
5.41400000000E+08	-1.31654290506E+01	-4.44133456178E+01	-6.89052044063E-01	-1.36624758562E+02	-6.91133318065E-01	-1.36586572230E+02	-1.31534726733E+01	-4.84218998534E+01
5.42000000000E+08	-1.31612047390E+01	-4.46242767402E+01	-6.91643318604E-01	-1.36841204158E+02	-6.92995104693E-01	-1.36790429640E+02	-1.31454987431E+01	-4.86855580006E+01
5.42600000000E+08	-1.31519917293E+01	-4.49315899120E+01	-6.97907507121E-01	-1.37074031714E+02	-6.99005355708E-01	-1.36994678202E+02	-1.31437358833E+01	-4.89965832625E+01
5.43200000000E+08	-1.31438052707E+01	-4.52377526313E+01	-7.03028857036E-01	-1.37278220398E+02	-7.05694430764E-01	-1.37215863325E+02	-1.31414690054E+01	-4.93764524252E+01
5.43800000000E+08	-1.31435746925E+01	-4.55814117768E+01	-7.11798452008E-01	-1.37490213865E+02	-7.13549794541E-01	-1.37399495144E+02	-1.31474857217E+01	-4.97331442256E+01
5.44400000000E+08	-1.31512407499E+01	-4.59615944886E+01	-7.19016667950E-01	-1.37658669867E+02	-7.20031579423E-01	-1.37591459740E+02	-1.31636385251E+01	-5.01093874719E+01
5.45000000000E+08	-1.31809489487E+01	-4.63182321073E+01	-7.27729829057E-01	-1.37839195278E+02	-7.26673495052E-01	-1.37753825953E+02	-1.31986470582E+01	-5.04277698334E+01
5.45600000000E+08	-1.32164523834E+01	-4.65558027748E+01	-7.31562370482E-01	-1.37986736232E+02	-7.27276039046E-01	-1.37897462832E+02	-1.32322491447E+01	-5.06464235766E+01
5.46200000000E+08	-1.32447379141E+01	-4.66507657453E+01	-7.30219050347E-01	-1.38138052570E+02	-7.26404132394E-01	-1.38096920508E+02	-1.32547417328E+01	-5.07277612740E+01
5.46800000000E+08	-1.32458918699E+01	-4.66729919103E+01	-7.25440039244E-01	-1.38363851576E+02	-7.21693137386E-01	-1.38299602376E+02	-1.32650570921E+01	-5.07868753612E+01
5.47400000000E+08	-1.32323541629E+01	-4.68173479544E+01	-7.24133072338E-01	-1.38586003709E+02	-7.18809277275E-01	-1.38520924834E+02	-1.32576668855E+01	-5.08690625430E+01
5.48000000000E+08	-1.32113402251E+01	-4.70667173995E+01	-7.24086063966E-01	-1.38815958805E+02	-7.20674509183E-01	-1.38765059576E+02	-1.32366385032E+01	-5.10560234846E+01
5.48600000000E+08	-1.31963051049E+01	-4.74084945543E+01	-7.31072686941E-01	-1.39070293423E+02	-7.26931537325E-01	-1.38982515190E+02	-1.32187035847E+01	-5.13445224552E+01
5.49200000000E+08	-1.31964678055E+01	-4.78504582263E+01	-7.40975560098E-01	-1.39299049861E+02	-7.38416835915E-01	-1.39227016838E+02	-1.32075993635E+01	-5.17087402960E+01
5.49800000000E+08	-1.32025794310E+01	-4.82932338617E+01	-7.51700148827E-01	-1.39512721943E+02	-7.45443350538E-01	-1.39434723380E+02	-1.32006541711E+01	-5.21134061290E+01
5.50400000000E+08	-1.32211524633E+01	-4.87483121275E+01	-7.62974251125E-01	-1.39693039800E+02	-7.57204235936E-01	-1.39629648788E+02	-1.32109715304E+01	-5.25778134430E+01
5.51000000000E+08	-1.32628421858E+01	-4.92163957400E+01	-7.76955260378E-01	-1.39874372543E+02	-7.70872838453E-01	-1.39801601327E+02	-1.32360487814E+01	-5.30236099431E+01
5.51600000000E+08	-1.33202229169E+01	-4.95804954469E+01	-7.85349669456E-01	-1.40006159565E+02	-7.81612542626E-01	-1.39956686288E+02	-1.32806487100E+01	-5.34437667963E+01
5.52200000000E+08	-1.33900648637E+01	-4.98555347299E+01	-7.90698392026E-01	-1.40115892391E+02	-7.83988535463E-01	-1.40065923035E+02	-1.33287069521E+01	-5.37488118231E+01
5.52800000000E+08	-1.34669871022E+01	-4.99716961474E+01	-7.90349696309E-01	-1.40216552015E+02	-7.84149528556E-01	-1.40184153819E+02	-1.33805154136E+01	-5.39365224243E+01
5.53400000000E+08	-1.35393653051E+01	-4.98542578659E+01	-7.84897213568E-01	-1.40320633630E+02	-7.79391323497E-01	-1.40319822611E+02	-1.34334453823E+01	-5.40242026513E+01
5.54000000000E+08	-1.35888823662E+01	-4.95962495429E+01	-7.71929503105E-01	-1.40469232193E+02	-7.68326311496E-01	-1.40441232958E+02	-1.34786317031E+01	-5.39983098999E+01
5.54600000000E+08	-1.36006328225E+01	-4.92608783712E+01	-7.52955550755E-01	-1.40655913279E+02	-7.56001858636E-01	-1.40655055027E+02	-1.35091573168E+01	-5.38688097467E+01
5.55200000000E+08	-1.35880018609E+01	-4.89389751415E+01	-7.40623630138E-01	-1.40887671371E+02	-7.43839001890E-01	-1.40869747324E+02	-1.35140243540E+01	-5.36940534048E+01
5.55800000000E+08	-1.35445683585E+01	-4.87708344176E+01	-7.28889587681E-01	-1.41167548089E+02	-7.31522631542E-01	-1.41120332746E+02	-1.34899910275E+01	-5.35390094881E+01
5.56400000000E+08	-1.34899473133E+01	-4.87805322076E+01	-7.25341132319E-01	-1.41471517340E+02	-7.27615576871E-01	-1.41411639265E+02	-1.34576756770E+01	-5.35721737071E+01
5.57000000000E+08	-1.34387575701E+01	-4.89666541247E+01	-7.24304864689E-01	-1.41755911526E+02	-7.27011642137E-01	-1.41683999766E+02	-1.34191549720E+01	-5.37022017000E+01
5.57600000000E+08	-1.33974457581E+01	-4.92250373889E+01	-7.28294449386E-01	-1.42025113522E+02	-7.30102658811E-01	-1.41966484112E+02	-1.33800074970E+01	-5.39211556571E+01
5.58200000000E+08	-1.33701460593E+01	-4.95858507679E+01	-7.33527989071E-01	-1.42303285258E+02	-7.34576231625E-01	-1.42231771531E+02	-1.33558649194E+01	-5.41942092278E+01
5.58800000000E+08	-1.33522923151E+01	-4.99774793263E+01	-7.42839619135E-01	-1.42562874715E+02	-7.40046474499E-01	-1.42483295441E+02	-1.33319724213E+01	-5.45186041814E+01
5.59400000000E+08	-1.33467518615E+01	-5.03756828983E+01	-7.50771724251E-01	-1.42808045773E+02	-7.46960548185E-01	-1.42719094735E+02	-1.33127988324E+01	-5.48622037241E+01
5.60000000000E+08	-1.33607718562E+01	-5.08191177184E+01	-7.60593083017E-01	-1.43035227805E+02	-7.59021048885E-01	-1.42947628027E+02	-1.32971867445E+01	-5.52720926324E+01
5.60600000000E+08	-1.33879328039E+01	-5.10817413337E+01	-7.70954920578E-01	-1.43217624667E+02	-7.63455946843E-01	-1.43160290391E+02	-1.32926615669E+01	-5.56868077051E+01
5.61200000000E+08	-1.34203505583E+01	-5.12554578283E+01	-7.76177976120E-01	-1.43404228168E+02	-7.70961057222E-01	-1.43354998942E+02	-1.33034000061E+01	-5.60964984482E+01
5.61800000000E+08	-1.34384596878E+01	-5.12884337113E+01	-7.76974718499E-01	-1.43591140033E+02	-7.72492576848E-01	-1.43541469248E+02	-1.33273239495E+01	-5.64796526576E+01
5.62400000000E+08	-1.34372429738E+01	-5.13052189019E+01	-7.76309079028E-01	-1.43794059547E+02	-7.73810668939E-01	-1.43725369628E+02	-1.33521515030E+01	-5.67699108220E+01
5.63000000000E+08	-1.34163987349E+01	-5.14020407589E+01	-7.73975017250E-01	-1.44004648331E+02	-7.71315069350E-01	-1.43961976184E+02	-1.33744402265E+01	-5.69929356543E+01
5.63600000000E+08	-1.33952529915E+01	-5.15807602344E+01	-7.73445431509E-01	-1.44233074410E+02	-7.71745802493E-01	-1.44191858129E+02	-1.33851286583E+01	-5.71433907974E+01
5.64200000000E+08	-1.33788312244E+01	-5.18255820836E+01	-7.72980181488E-01	-1.44462953289E+02	-7.70736431945E-01	-1.44426377086E+02	-1.33819763669E+01	-5.73211024519E+01
5.64800000000E+08	-1.33704467831E+01	-5.21016875264E+01	-7.74127388011E-01	-1.44725816090E+02	-7.74051223451E-01	-1.44681185448E+02	-1.33866073027E+01	-5.75133504729E+01
5.65400000000E+08	-1.33696567333E+01	-5.23528624627E+01	-7.75991216026E-01	-1.44960860638E+02	-7.76235977352E-01	-1.44908171974E+02	-1.33805959975E+01	-5.77559875879E+01
5.66000000000E+08	-1.33670049679E+01	-5.25894729934E+01	-7.80007301730E-01	-1.45196184356E+02	-7.79828982490E-01	-1.45128994243E+02	-1.33815843930E+01	-5.80521209109E+01
5.66600000000E+08	-1.33678521169E+01	-5.28178000725E+01	-7.81097765141E-01	-1.45416217098E+02	-7.83489784497E-01	-1.45378206273E+02	-1.33896860503E+01	-5.83019959091E+01
5.67200000000E+08	-1.33637320501E+01	-5.30220269702E+01	-7.82364729629E-01	-1.45670492770E+02	-7.83983622824E-01	-1.45583252109E+02	-1.33941981227E+01	-5.85245765015E+01
5.67800000000E+08	-1.33559882341E+01	-5.32295612487E+01	-7.83800199609E-01	-1.45902723345E+02	-7.81590524623E-01	-1.45820683818E+02	-1.34011825219E+01	-5.86865265839E+01
5.68400000000E+08	-1.33463536161E+01	-5.34301212021E+01	-7.86246745940E-01	-1.46145402217E+02	-7.83296791706E-01	-1.46076272658E+02	-1.33980774748E+01	-5.88404128877E+01
