# Hz S DB R 50
! CMT, S5065, 24347010, 24.3.4/3
! Date: 10/16/2024 1:06:15 AM
! Data: Format (Calibration Info)
! Freq	S11:dB/Ang(F2)	S21:dB/Ang(F2)	S12:dB/Ang(F2)	S22:dB/Ang(F2)
5.00000000000E+08	-1.33383910076E+01	-3.06282284001E+01	-5.44751224803E-01	-1.23234624948E+02	-5.45669508813E-01	-1.23195939470E+02	-1.33736856050E+01	-3.30453086212E+01
5.00600000000E+08	-1.33314455601E+01	-3.08475894842E+01	-5.47425574181E-01	-1.23419836181E+02	-5.49345470500E-01	-1.23369075499E+02	-1.33643906706E+01	-3.33226150113E+01
5.01200000000E+08	-1.33336664143E+01	-3.10143887484E+01	-5.51153061906E-01	-1.23614254362E+02	-5.48927413345E-01	-1.23544308852E+02	-1.33600773649E+01	-3.35658032779E+01
5.01800000000E+08	-1.33379353295E+01	-3.11764448681E+01	-5.52106933142E-01	-1.23791752196E+02	-5.51644983518E-01	-1.23732640626E+02	-1.33594760888E+01	-3.37862847877E+01
5.02400000000E+08	-1.33393638270E+01	-3.12812430125E+01	-5.54355955984E-01	-1.23972832815E+02	-5.52910595866E-01	-1.23901495128E+02	-1.33601186132E+01	-3.39350238987E+01
5.03000000000E+08	-1.33311044960E+01	-3.13673276591E+01	-5.53708027980E-01	-1.24156726808E+02	-5.51609902305E-01	-1.24100075066E+02	-1.33509197457E+01	-3.40941386564E+01
5.03600000000E+08	-1.33146294485E+01	-3.15429353020E+01	-5.52642677258E-01	-1.24346092052E+02	-5.51575096318E-01	-1.24282159538E+02	-1.33428271591E+01	-3.42632893657E+01
5.04200000000E+08	-1.33063789213E+01	-3.17181024618E+01	-5.55652586176E-01	-1.24542550848E+02	-5.54599802488E-01	-1.24481824307E+02	-1.33354823517E+01	-3.44382249852E+01
5.04800000000E+08	-1.32977528492E+01	-3.18984786023E+01	-5.55706958389E-01	-1.24726630076E+02	-5.55614359738E-01	-1.24689507270E+02	-1.33221639720E+01	-3.46357418159E+01
5.05400000000E+08	-1.32821684775E+01	-3.20815787277E+01	-5.58288519887E-01	-1.24923636934E+02	-5.56432791174E-01	-1.24880346794E+02	-1.33067551389E+01	-3.48499623710E+01
5.06000000000E+08	-1.32672485618E+01	-3.23055937386E+01	-5.62948336686E-01	-1.25134012458E+02	-5.59771205968E-01	-1.25074816853E+02	-1.32900901058E+01	-3.51112315928E+01
5.06600000000E+08	-1.32537126976E+01	-3.25698300750E+01	-5.65419067669E-01	-1.25321003156E+02	-5.64439241298E-01	-1.25266451298E+02	-1.32801619230E+01	-3.53714073689E+01
5.07200000000E+08	-1.32449698365E+01	-3.28430964519E+01	-5.68964778233E-01	-1.25513630718E+02	-5.69109119549E-01	-1.25455119745E+02	-1.32776643850E+01	-3.56639150605E+01
5.07800000000E+08	-1.32462046662E+01	-3.31329546572E+01	-5.73529803862E-01	-1.25703602448E+02	-5.73533922268E-01	-1.25636175210E+02	-1.32779589337E+01	-3.59363209027E+01
5.08400000000E+08	-1.32507217607E+01	-3.33655081611E+01	-5.78125852357E-01	-1.25878899669E+02	-5.79554767778E-01	-1.25815229736E+02	-1.32795928621E+01	-3.61741865192E+01
5.09000000000E+08	-1.32575526245E+01	-3.36139549193E+01	-5.80743029749E-01	-1.26045488698E+02	-5.80195864079E-01	-1.25965868519E+02	-1.32825079875E+01	-3.64248763620E+01
5.09600000000E+08	-1.32687145769E+01	-3.37990800969E+01	-5.82483025992E-01	-1.26191910072E+02	-5.82284488828E-01	-1.26143211431E+02	-1.32867568694E+01	-3.66136565728E+01
5.10200000000E+08	-1.32711934694E+01	-3.39265200840E+01	-5.82583352576E-01	-1.26382085383E+02	-5.82328334245E-01	-1.26315072756E+02	-1.32863569843E+01	-3.67395546495E+01
5.10800000000E+08	-1.32647868664E+01	-3.41418482375E+01	-5.83859717772E-01	-1.26572448415E+02	-5.85352347542E-01	-1.26509763647E+02	-1.32755093225E+01	-3.69533703998E+01
5.11400000000E+08	-1.32596003207E+01	-3.43295641762E+01	-5.87329195829E-01	-1.26774221652E+02	-5.90011205415E-01	-1.26688633177E+02	-1.32642129671E+01	-3.71722205116E+01
5.12000000000E+08	-1.32606310908E+01	-3.45670264033E+01	-5.91498370511E-01	-1.26957881637E+02	-5.90281126524E-01	-1.26882466989E+02	-1.32591383923E+01	-3.74320690957E+01
5.12600000000E+08	-1.32656662491E+01	-3.48057536658E+01	-5.94038681456E-01	-1.27129954792E+02	-5.93459445870E-01	-1.27075931784E+02	-1.32556783549E+01	-3.76925212612E+01
5.13200000000E+08	-1.32732283802E+01	-3.50191701959E+01	-5.97770188183E-01	-1.27291875782E+02	-5.97832098610E-01	-1.27249325616E+02	-1.32539328754E+01	-3.79165382730E+01
5.13800000000E+08	-1.32862241053E+01	-3.51582394180E+01	-5.98354879232E-01	-1.27461720648E+02	-5.99677135307E-01	-1.27402646808E+02	-1.32601667320E+01	-3.81769333251E+01
5.14400000000E+08	-1.32867204131E+01	-3.52695096497E+01	-5.98616946307E-01	-1.27646336354E+02	-5.98559878265E-01	-1.27570962377E+02	-1.32614469352E+01	-3.83919996476E+01
5.15000000000E+08	-1.32787785789E+01	-3.54183082474E+01	-6.00577291777E-01	-1.27821540926E+02	-6.00090778391E-01	-1.27760345919E+02	-1.32588749340E+01	-3.85714387002E+01
5.15600000000E+08	-1.32714637501E+01	-3.56335724174E+01	-6.05578930106E-01	-1.28015291093E+02	-6.03227236900E-01	-1.27954298000E+02	-1.32538743313E+01	-3.87732485692E+01
5.16200000000E+08	-1.32686724461E+01	-3.58447910044E+01	-6.06727995909E-01	-1.28204860451E+02	-6.05942563655E-01	-1.28147740573E+02	-1.32458694988E+01	-3.90091166431E+01
5.16800000000E+08	-1.32700465801E+01	-3.60859076774E+01	-6.10001823968E-01	-1.28388839193E+02	-6.10644293477E-01	-1.28327936725E+02	-1.32446921502E+01	-3.92733022655E+01
5.17400000000E+08	-1.32840094589E+01	-3.62965454354E+01	-6.12454713028E-01	-1.28547000025E+02	-6.12367400599E-01	-1.28487107775E+02	-1.32503061644E+01	-3.95632834102E+01
5.18000000000E+08	-1.32988108393E+01	-3.64829563524E+01	-6.16227097212E-01	-1.28712132794E+02	-6.17095872231E-01	-1.28643460301E+02	-1.32652606100E+01	-3.97363509950E+01
5.18600000000E+08	-1.33139222078E+01	-3.65524101627E+01	-6.13773137496E-01	-1.28866966668E+02	-6.13469531456E-01	-1.28825471401E+02	-1.32688581301E+01	-3.99294763435E+01
5.19200000000E+08	-1.33119010224E+01	-3.66071651545E+01	-6.13631439038E-01	-1.29038730645E+02	-6.12017433717E-01	-1.28974256372E+02	-1.32658208291E+01	-4.00177074786E+01
5.19800000000E+08	-1.32997902383E+01	-3.66830982864E+01	-6.12779611243E-01	-1.29251951112E+02	-6.10340286198E-01	-1.29199657178E+02	-1.32571370799E+01	-4.01929999642E+01
5.20400000000E+08	-1.32869364453E+01	-3.68446666340E+01	-6.12527287514E-01	-1.29458280138E+02	-6.10734742184E-01	-1.29383673617E+02	-1.32395862120E+01	-4.03775562495E+01
5.21000000000E+08	-1.32768742440E+01	-3.70812355962E+01	-6.17394557853E-01	-1.29654993307E+02	-6.13242110181E-01	-1.29592630072E+02	-1.32225911000E+01	-4.06489975975E+01
5.21600000000E+08	-1.32735234325E+01	-3.73248844770E+01	-6.22372324934E-01	-1.29847831810E+02	-6.21871237514E-01	-1.29793258341E+02	-1.32147475656E+01	-4.09879513431E+01
5.22200000000E+08	-1.32882860513E+01	-3.75498536446E+01	-6.25449108162E-01	-1.30019331092E+02	-6.24067174578E-01	-1.29953185427E+02	-1.32262878694E+01	-4.13505130037E+01
5.22800000000E+08	-1.33047184365E+01	-3.76312730086E+01	-6.27865586090E-01	-1.30163565333E+02	-6.25541853959E-01	-1.30105931678E+02	-1.32512490837E+01	-4.16020394943E+01
5.23400000000E+08	-1.33014754433E+01	-3.76615795560E+01	-6.25723337545E-01	-1.30326837597E+02	-6.21982751087E-01	-1.30274384022E+02	-1.32670979818E+01	-4.17230356337E+01
5.24000000000E+08	-1.32902465852E+01	-3.77340305199E+01	-6.23169584681E-01	-1.30512660395E+02	-6.19935828082E-01	-1.30460223328E+02	-1.32736610635E+01	-4.18206191163E+01
5.24600000000E+08	-1.32707774201E+01	-3.78714110343E+01	-6.21844298380E-01	-1.30725785379E+02	-6.19790919113E-01	-1.30665329093E+02	-1.32660279490E+01	-4.19439877826E+01
5.25200000000E+08	-1.32574908724E+01	-3.80272383089E+01	-6.22091214534E-01	-1.30927819468E+02	-6.18566581315E-01	-1.30876233585E+02	-1.32593927963E+01	-4.21338213662E+01
5.25800000000E+08	-1.32371419981E+01	-3.82437079993E+01	-6.24308854185E-01	-1.31136440241E+02	-6.23792993459E-01	-1.31080863288E+02	-1.32518715489E+01	-4.23577023405E+01
5.26400000000E+08	-1.32310747012E+01	-3.85284896684E+01	-6.28806313535E-01	-1.31323381408E+02	-6.25812652279E-01	-1.31254881307E+02	-1.32530647028E+01	-4.26093695797E+01
5.27000000000E+08	-1.32346168810E+01	-3.87338869328E+01	-6.30304933309E-01	-1.31505431656E+02	-6.27999822823E-01	-1.31447327566E+02	-1.32644265874E+01	-4.28266838301E+01
5.27600000000E+08	-1.32386399244E+01	-3.88838783326E+01	-6.32523875256E-01	-1.31677115834E+02	-6.29798825579E-01	-1.31627137836E+02	-1.32749923290E+01	-4.29763165566E+01
5.28200000000E+08	-1.32426315958E+01	-3.90145415289E+01	-6.30199008594E-01	-1.31857266226E+02	-6.27738094143E-01	-1.31821003036E+02	-1.32781036605E+01	-4.30975746235E+01
5.28800000000E+08	-1.32314082120E+01	-3.91284299087E+01	-6.26184339602E-01	-1.32054962541E+02	-6.22657529494E-01	-1.32004474284E+02	-1.32725885625E+01	-4.31528998766E+01
5.29400000000E+08	-1.32136926229E+01	-3.92573417873E+01	-6.24331786857E-01	-1.32282783063E+02	-6.21984234820E-01	-1.32218748956E+02	-1.32600627723E+01	-4.32823359757E+01
5.30000000000E+08	-1.31910520268E+01	-3.94396571217E+01	-6.28233553618E-01	-1.32496364184E+02	-6.24286475340E-01	-1.32431668976E+02	-1.32391723534E+01	-4.34577398108E+01
5.30600000000E+08	-1.31775006356E+01	-3.97067432704E+01	-6.29802711248E-01	-1.32705914743E+02	-6.25414907070E-01	-1.32648139696E+02	-1.32276650708E+01	-4.37157339624E+01
5.31200000000E+08	-1.31672591820E+01	-4.00093289750E+01	-6.33976284229E-01	-1.32929063211E+02	-6.33402525596E-01	-1.32870856854E+02	-1.32245452940E+01	-4.39995101745E+01
5.31800000000E+08	-1.31643807285E+01	-4.02296923859E+01	-6.36033974015E-01	-1.33108962368E+02	-6.34309282449E-01	-1.33063091536E+02	-1.32246000613E+01	-4.42441192581E+01
5.32400000000E+08	-1.31685237171E+01	-4.05057947097E+01	-6.40549773445E-01	-1.33310698987E+02	-6.38016003402E-01	-1.33251498749E+02	-1.32266403313E+01	-4.44416343544E+01
5.33000000000E+08	-1.31622720813E+01	-4.07119172838E+01	-6.42676013475E-01	-1.33489818414E+02	-6.41723920336E-01	-1.33446544446E+02	-1.32258065877E+01	-4.46738231624E+01
5.33600000000E+08	-1.31699654212E+01	-4.09310589597E+01	-6.44739074780E-01	-1.33704885394E+02	-6.44324667234E-01	-1.33634124032E+02	-1.32230749433E+01	-4.48481495136E+01
5.34200000000E+08	-1.31704022075E+01	-4.11240131962E+01	-6.44851451735E-01	-1.33900289995E+02	-6.43784897963E-01	-1.33823649531E+02	-1.32241095354E+01	-4.50138978890E+01
5.34800000000E+08	-1.31638188181E+01	-4.13235660297E+01	-6.48448473135E-01	-1.34105188199E+02	-6.46250248503E-01	-1.34033034982E+02	-1.32181508440E+01	-4.51827968997E+01
5.35400000000E+08	-1.31594474776E+01	-4.15371956507E+01	-6.51609301723E-01	-1.34302242611E+02	-6.47821570332E-01	-1.34252161357E+02	-1.32122363154E+01	-4.53544115624E+01
5.36000000000E+08	-1.31502223722E+01	-4.17441159447E+01	-6.51165512565E-01	-1.34517280481E+02	-6.48505289893E-01	-1.34451640699E+02	-1.31993111385E+01	-4.55491664606E+01
5.36600000000E+08	-1.31419374572E+01	-4.19327651873E+01	-6.55548234188E-01	-1.34736384460E+02	-6.53504942947E-01	-1.34658089785E+02	-1.31862065884E+01	-4.57768101031E+01
5.37200000000E+08	-1.31190647748E+01	-4.22050172801E+01	-6.58514044425E-01	-1.34941194419E+02	-6.55360462692E-01	-1.34905475751E+02	-1.31642030659E+01	-4.60524548930E+01
5.37800000000E+08	-1.31038644392E+01	-4.25667511277E+01	-6.65880005737E-01	-1.35195819528E+02	-6.62595864451E-01	-1.35111420058E+02	-1.31459523424E+01	-4.63777328611E+01
5.38400000000E+08	-1.30952877357E+01	-4.30374441088E+01	-6.76612252172E-01	-1.35389294999E+02	-6.74240295120E-01	-1.35326934251E+02	-1.31389963155E+01	-4.68643331710E+01
5.39000000000E+08	-1.31206473205E+01	-4.35231135288E+01	-6.89549635758E-01	-1.35552060892E+02	-6.86634509405E-01	-1.35506508068E+02	-1.31494275238E+01	-4.73697381784E+01
5.39600000000E+08	-1.31698642648E+01	-4.38943291802E+01	-6.93900407684E-01	-1.35705261772E+02	-6.93671193125E-01	-1.35650376434E+02	-1.31878120999E+01	-4.77577131691E+01
5.40200000000E+08	-1.32152336219E+01	-4.40836681758E+01	-7.00592021272E-01	-1.35824698210E+02	-6.96111224914E-01	-1.35752727334E+02	-1.32331589105E+01	-4.80431245880E+01
5.40800000000E+08	-1.32531599232E+01	-4.41662820845E+01	-6.99189118955E-01	-1.35980199939E+02	-6.96833087242E-01	-1.35919294881E+02	-1.32782691643E+01	-4.82187342901E+01
5.41400000000E+08	-1.32802708245E+01	-4.41929570851E+01	-6.94622772648E-01	-1.36127074632E+02	-6.93907675508E-01	-1.36080627179E+02	-1.33243982769E+01	-4.82916529504E+01
5.42000000000E+08	-1.32990418059E+01	-4.41668760632E+01	-6.87423575870E-01	-1.36293347985E+02	-6.84879371709E-01	-1.36250215861E+02	-1.33502696659E+01	-4.82009322282E+01
5.42600000000E+08	-1.32956409174E+01	-4.41523978214E+01	-6.81865115389E-01	-1.36505030767E+02	-6.78379252187E-01	-1.36446887144E+02	-1.33535887738E+01	-4.81126981032E+01
5.43200000000E+08	-1.32741856451E+01	-4.41477967139E+01	-6.72204885929E-01	-1.36712806767E+02	-6.71610649117E-01	-1.36671707662E+02	-1.33362735376E+01	-4.80860877010E+01
5.43800000000E+08	-1.32469682388E+01	-4.42773603253E+01	-6.72728117505E-01	-1.36985342185E+02	-6.69162610683E-01	-1.36903229235E+02	-1.33057724739E+01	-4.81528309202E+01
5.44400000000E+08	-1.32134548515E+01	-4.45680302129E+01	-6.75754968830E-01	-1.37249435487E+02	-6.72214178990E-01	-1.37189284513E+02	-1.32717892142E+01	-4.83512750702E+01
5.45000000000E+08	-1.32021327516E+01	-4.50219253878E+01	-6.84422960855E-01	-1.37479525710E+02	-6.80542071322E-01	-1.37428536853E+02	-1.32505792539E+01	-4.87119407882E+01
5.45600000000E+08	-1.32307029591E+01	-4.54757286344E+01	-6.95000346410E-01	-1.37654902502E+02	-6.92212604786E-01	-1.37598022407E+02	-1.32506855696E+01	-4.91402660176E+01
5.46200000000E+08	-1.32807685284E+01	-4.56718516222E+01	-6.99329688698E-01	-1.37793731947E+02	-6.96942918571E-01	-1.37771422196E+02	-1.32740475147E+01	-4.94598880821E+01
5.46800000000E+08	-1.33072099689E+01	-4.56863675582E+01	-6.96725024785E-01	-1.37978342914E+02	-6.96393682775E-01	-1.37936132291E+02	-1.33031689319E+01	-4.96403684695E+01
5.47400000000E+08	-1.33182328077E+01	-4.57449088459E+01	-6.94369972488E-01	-1.38176871546E+02	-6.91292362863E-01	-1.38120189064E+02	-1.33197848144E+01	-4.97421192536E+01
5.48000000000E+08	-1.33230119538E+01	-4.57551121551E+01	-6.91446948626E-01	-1.38371101053E+02	-6.86918414689E-01	-1.38308642613E+02	-1.33245337188E+01	-4.98409694572E+01
5.48600000000E+08	-1.33157601608E+01	-4.57982124648E+01	-6.90183084769E-01	-1.38588961406E+02	-6.85208927930E-01	-1.38528502762E+02	-1.33254046928E+01	-4.99384121707E+01
5.49200000000E+08	-1.33006356990E+01	-4.58875066808E+01	-6.86828192398E-01	-1.38817018874E+02	-6.85317881884E-01	-1.38765730399E+02	-1.33228371807E+01	-5.00774856241E+01
5.49800000000E+08	-1.32783965515E+01	-4.60341141287E+01	-6.87193589051E-01	-1.39043765397E+02	-6.83024701551E-01	-1.38971219111E+02	-1.33165297001E+01	-5.02239487542E+01
5.50400000000E+08	-1.32615592050E+01	-4.62541728988E+01	-6.85444591868E-01	-1.39263183946E+02	-6.83953514119E-01	-1.39203518810E+02	-1.33168954953E+01	-5.03719801434E+01
5.51000000000E+08	-1.32583458926E+01	-4.64775431902E+01	-6.87091327852E-01	-1.39499905751E+02	-6.84894680990E-01	-1.39438619020E+02	-1.33109504009E+01	-5.04810637953E+01
5.51600000000E+08	-1.32514228920E+01	-4.66119565762E+01	-6.82882625485E-01	-1.39739831005E+02	-6.83802763756E-01	-1.39663824333E+02	-1.32972483176E+01	-5.05819432344E+01
5.52200000000E+08	-1.32343163042E+01	-4.67745569844E+01	-6.85279031375E-01	-1.39970344080E+02	-6.81967428672E-01	-1.39920897550E+02	-1.32709019935E+01	-5.07425971018E+01
5.52800000000E+08	-1.32122931241E+01	-4.70012812351E+01	-6.85640587498E-01	-1.40241727936E+02	-6.82855934063E-01	-1.40177948742E+02	-1.32413095964E+01	-5.09640053544E+01
5.53400000000E+08	-1.31891756241E+01	-4.72720317101E+01	-6.90595416463E-01	-1.40491993761E+02	-6.89117905623E-01	-1.40442323816E+02	-1.32163151289E+01	-5.12580261333E+01
5.54000000000E+08	-1.31682931651E+01	-4.76273062122E+01	-6.97587659547E-01	-1.40750179620E+02	-6.94366826625E-01	-1.40687292864E+02	-1.31946562335E+01	-5.16146096148E+01
5.54600000000E+08	-1.31554383446E+01	-4.80149125826E+01	-7.06552309712E-01	-1.40959856611E+02	-7.02250179859E-01	-1.40948116515E+02	-1.31819724327E+01	-5.20273721283E+01
5.55200000000E+08	-1.31684990865E+01	-4.84482489775E+01	-7.14135672322E-01	-1.41196038146E+02	-7.13316481324E-01	-1.41138556629E+02	-1.31856913261E+01	-5.24452177023E+01
5.55800000000E+08	-1.31852560423E+01	-4.87682594765E+01	-7.21986801415E-01	-1.41409699960E+02	-7.17833362205E-01	-1.41345858489E+02	-1.31957032640E+01	-5.27845123189E+01
5.56400000000E+08	-1.31968919747E+01	-4.90253516093E+01	-7.25364008148E-01	-1.41608397735E+02	-7.23957874451E-01	-1.41563512563E+02	-1.32096493377E+01	-5.30991598147E+01
5.57000000000E+08	-1.32033296111E+01	-4.92713314033E+01	-7.30863726947E-01	-1.41812323881E+02	-7.26775203840E-01	-1.41761032821E+02	-1.32206439751E+01	-5.33713499902E+01
5.57600000000E+08	-1.32060027342E+01	-4.94957605901E+01	-7.34212311119E-01	-1.42021192662E+02	-7.30330690241E-01	-1.41994467659E+02	-1.32299933571E+01	-5.36252345368E+01
5.58200000000E+08	-1.32051496132E+01	-4.97657520430E+01	-7.35394027853E-01	-1.42257678469E+02	-7.33196286328E-01	-1.42211897508E+02	-1.32393531559E+01	-5.38069833685E+01
5.58800000000E+08	-1.31979337901E+01	-5.00485360119E+01	-7.39857325069E-01	-1.42494360093E+02	-7.36228161385E-01	-1.42444609153E+02	-1.32358262975E+01	-5.39839262999E+01
5.59400000000E+08	-1.31876774516E+01	-5.04249673460E+01	-7.44165733883E-01	-1.42735662968E+02	-7.41228729648E-01	-1.42679864864E+02	-1.32218026030E+01	-5.42035498132E+01
5.60000000000E+08	-1.31954479964E+01	-5.08957693228E+01	-7.54055757942E-01	-1.42971429079E+02	-7.51466240240E-01	-1.42914694259E+02	-1.32010192392E+01	-5.44745015656E+01
5.60600000000E+08	-1.32163677490E+01	-5.13646066958E+01	-7.63539243046E-01	-1.43183408582E+02	-7.59197090734E-01	-1.43134293887E+02	-1.31758648887E+01	-5.48227377173E+01
5.61200000000E+08	-1.32655585120E+01	-5.18122829780E+01	-7.74421579709E-01	-1.43384450221E+02	-7.75451046709E-01	-1.43351281135E+02	-1.31549455047E+01	-5.53160973764E+01
5.61800000000E+08	-1.33411429158E+01	-5.20419092933E+01	-7.87439159848E-01	-1.43525301016E+02	-7.85737684082E-01	-1.43488620972E+02	-1.31656925559E+01	-5.59643073279E+01
5.62400000000E+08	-1.34055391823E+01	-5.19539498093E+01	-7.87523586236E-01	-1.43665384957E+02	-7.87111399524E-01	-1.43588029388E+02	-1.32233365409E+01	-5.65402773785E+01
5.63000000000E+08	-1.34104765906E+01	-5.17375330019E+01	-7.79239378044E-01	-1.43829375230E+02	-7.76678191663E-01	-1.43762808739E+02	-1.32877396819E+01	-5.67282087048E+01
5.63600000000E+08	-1.33881823038E+01	-5.17310924369E+01	-7.72398376493E-01	-1.44060627082E+02	-7.70954999337E-01	-1.43992742788E+02	-1.33172012212E+01	-5.67586645225E+01
5.64200000000E+08	-1.33679518993E+01	-5.19037381337E+01	-7.69517546139E-01	-1.44301587757E+02	-7.68079875885E-01	-1.44237911683E+02	-1.33181143830E+01	-5.68819251006E+01
5.64800000000E+08	-1.33606062857E+01	-5.20760929842E+01	-7.73253041070E-01	-1.44540755337E+02	-7.70141071261E-01	-1.44488013592E+02	-1.33344909295E+01	-5.70161776948E+01
5.65400000000E+08	-1.33538043806E+01	-5.22766504699E+01	-7.71723578177E-01	-1.44782171448E+02	-7.69875598882E-01	-1.44716330189E+02	-1.33358220844E+01	-5.71651860228E+01
5.66000000000E+08	-1.33450757371E+01	-5.24949844576E+01	-7.73699768856E-01	-1.45000111380E+02	-7.71446658588E-01	-1.44934305991E+02	-1.33312853443E+01	-5.73191781108E+01
5.66600000000E+08	-1.33495955433E+01	-5.27248368142E+01	-7.73205625424E-01	-1.45236990796E+02	-7.74022156111E-01	-1.45199047031E+02	-1.33236274539E+01	-5.74588684647E+01
5.67200000000E+08	-1.33484739345E+01	-5.29474537345E+01	-7.74794842965E-01	-1.45500405422E+02	-7.73645508288E-01	-1.45433331072E+02	-1.33025208127E+01	-5.76778901374E+01
5.67800000000E+08	-1.33508891261E+01	-5.31347156068E+01	-7.78192388658E-01	-1.45745456297E+02	-7.75823114027E-01	-1.45689830853E+02	-1.32890463052E+01	-5.79715635067E+01
5.68400000000E+08	-1.33532150856E+01	-5.32840556466E+01	-7.84368748582E-01	-1.45968204996E+02	-7.79154288995E-01	-1.45925526721E+02	-1.32827090885E+01	-5.82866132544E+01
