# Hz S DB R 50
! CMT, S5065, 24347010, 24.3.4/3
! Date: 10/15/2024 10:11:41 PM
! Data: Format (Calibration Info)
! Freq	S11:dB/Ang(F2)	S21:dB/Ang(F2)	S12:dB/Ang(F2)	S22:dB/Ang(F2)
5.00000000000E+08	-1.32901088890E+01	-3.08819299217E+01	-5.46525126526E-01	-1.23546126297E+02	-5.46985238925E-01	-1.23492997829E+02	-1.33297995628E+01	-3.32685012265E+01
5.00600000000E+08	-1.32801755997E+01	-3.11346936954E+01	-5.52963083716E-01	-1.23737209341E+02	-5.51374644356E-01	-1.23678924661E+02	-1.33174737936E+01	-3.35378432847E+01
5.01200000000E+08	-1.32737947087E+01	-3.13752728878E+01	-5.57621848398E-01	-1.23945189470E+02	-5.52628757726E-01	-1.23841106899E+02	-1.33086618693E+01	-3.37905445618E+01
5.01800000000E+08	-1.32736132119E+01	-3.16129945524E+01	-5.60480034093E-01	-1.24103439820E+02	-5.57282404351E-01	-1.24045399962E+02	-1.33009343265E+01	-3.40324037004E+01
5.02400000000E+08	-1.32717465253E+01	-3.18151440344E+01	-5.63959169599E-01	-1.24293756609E+02	-5.60069027008E-01	-1.24224773180E+02	-1.32955117082E+01	-3.42384322043E+01
5.03000000000E+08	-1.32699584808E+01	-3.20072028327E+01	-5.65311478315E-01	-1.24471804481E+02	-5.62872479295E-01	-1.24414658168E+02	-1.32834433582E+01	-3.44833086152E+01
5.03600000000E+08	-1.32631709543E+01	-3.22698747228E+01	-5.67211395793E-01	-1.24655803107E+02	-5.65121307465E-01	-1.24607066399E+02	-1.32724607347E+01	-3.47303017876E+01
5.04200000000E+08	-1.32602070475E+01	-3.25196396383E+01	-5.72775140240E-01	-1.24854408838E+02	-5.69839115892E-01	-1.24785552727E+02	-1.32616365794E+01	-3.49998382034E+01
5.04800000000E+08	-1.32610731572E+01	-3.28321950146E+01	-5.77007684132E-01	-1.25038893548E+02	-5.77090560079E-01	-1.24987227501E+02	-1.32547995680E+01	-3.53327954121E+01
5.05400000000E+08	-1.32693330009E+01	-3.31289612023E+01	-5.85895973901E-01	-1.25206606785E+02	-5.81474751946E-01	-1.25155850280E+02	-1.32532975367E+01	-3.56690353661E+01
5.06000000000E+08	-1.32833614886E+01	-3.33607115406E+01	-5.89571675348E-01	-1.25366176648E+02	-5.86691462275E-01	-1.25325774917E+02	-1.32569640593E+01	-3.60168573389E+01
5.06600000000E+08	-1.32981999429E+01	-3.35707033988E+01	-5.91318707600E-01	-1.25531230607E+02	-5.91597269248E-01	-1.25484336031E+02	-1.32702368120E+01	-3.62997817002E+01
5.07200000000E+08	-1.33086861598E+01	-3.37632860907E+01	-5.93917304882E-01	-1.25694183368E+02	-5.93604758101E-01	-1.25636196376E+02	-1.32839336530E+01	-3.65718395385E+01
5.07800000000E+08	-1.33194516043E+01	-3.39148319628E+01	-5.95749517737E-01	-1.25849513487E+02	-5.97313451077E-01	-1.25795176231E+02	-1.32980054393E+01	-3.68253868275E+01
5.08400000000E+08	-1.33296772048E+01	-3.40806935443E+01	-5.97081378639E-01	-1.26016914287E+02	-5.96413956104E-01	-1.25958818480E+02	-1.33146964578E+01	-3.70268198729E+01
5.09000000000E+08	-1.33384802975E+01	-3.42392470933E+01	-5.97886341595E-01	-1.26188354878E+02	-5.97941819340E-01	-1.26096571385E+02	-1.33289252265E+01	-3.72192489978E+01
5.09600000000E+08	-1.33514747925E+01	-3.43789115712E+01	-5.99678593593E-01	-1.26327741768E+02	-5.97576259045E-01	-1.26265820049E+02	-1.33420078980E+01	-3.73584611636E+01
5.10200000000E+08	-1.33574233358E+01	-3.44771204862E+01	-5.98368455493E-01	-1.26495188560E+02	-5.93792600712E-01	-1.26433331210E+02	-1.33538394835E+01	-3.74521248435E+01
5.10800000000E+08	-1.33580057131E+01	-3.46213980948E+01	-5.97579665234E-01	-1.26675782497E+02	-5.94028426934E-01	-1.26620177208E+02	-1.33568157912E+01	-3.75779967748E+01
5.11400000000E+08	-1.33567236506E+01	-3.47124457975E+01	-5.97064530451E-01	-1.26874423644E+02	-5.95058852870E-01	-1.26807262405E+02	-1.33499469423E+01	-3.76956508470E+01
5.12000000000E+08	-1.33577138124E+01	-3.48732286747E+01	-5.98142470626E-01	-1.27051499762E+02	-5.95018760839E-01	-1.26989756161E+02	-1.33462946783E+01	-3.78741341889E+01
5.12600000000E+08	-1.33569682859E+01	-3.49882628225E+01	-5.95213270404E-01	-1.27212291318E+02	-5.93600592124E-01	-1.27182609931E+02	-1.33445101519E+01	-3.80303413365E+01
5.13200000000E+08	-1.33520290489E+01	-3.51007760371E+01	-5.96473493226E-01	-1.27407348901E+02	-5.95164571524E-01	-1.27382305059E+02	-1.33376474334E+01	-3.81493099078E+01
5.13800000000E+08	-1.33435102084E+01	-3.52323550413E+01	-5.93382684140E-01	-1.27605773060E+02	-5.94968915437E-01	-1.27568802417E+02	-1.33289704389E+01	-3.83321630846E+01
5.14400000000E+08	-1.33351687612E+01	-3.53997679186E+01	-5.96149412091E-01	-1.27798312148E+02	-5.96832117677E-01	-1.27760351276E+02	-1.33160073480E+01	-3.85333391549E+01
5.15000000000E+08	-1.33266995793E+01	-3.56068001040E+01	-5.95717788768E-01	-1.28002514306E+02	-5.99749755912E-01	-1.27946821083E+02	-1.33051891315E+01	-3.87576095696E+01
5.15600000000E+08	-1.33244203758E+01	-3.58032318646E+01	-6.00284989799E-01	-1.28187728170E+02	-6.02830577690E-01	-1.28143068028E+02	-1.32987449316E+01	-3.90015641040E+01
5.16200000000E+08	-1.33210321532E+01	-3.59764353145E+01	-6.04021865846E-01	-1.28364362503E+02	-6.05393542807E-01	-1.28326481942E+02	-1.32917864729E+01	-3.92424664761E+01
5.16800000000E+08	-1.33198217780E+01	-3.61815435218E+01	-6.04247007318E-01	-1.28570230622E+02	-6.08480876125E-01	-1.28506832716E+02	-1.32940646143E+01	-3.94958895737E+01
5.17400000000E+08	-1.33247566608E+01	-3.63449071978E+01	-6.07496516441E-01	-1.28744909419E+02	-6.10733231879E-01	-1.28672919467E+02	-1.32988501560E+01	-3.97598904560E+01
5.18000000000E+08	-1.33255264012E+01	-3.65124937996E+01	-6.08969888343E-01	-1.28921329749E+02	-6.13503597247E-01	-1.28840582844E+02	-1.33096201587E+01	-3.99836136897E+01
5.18600000000E+08	-1.33272645280E+01	-3.66640776801E+01	-6.10040653664E-01	-1.29093422638E+02	-6.11854758154E-01	-1.29014235999E+02	-1.33196163796E+01	-4.01749176332E+01
5.19200000000E+08	-1.33244317099E+01	-3.67512187126E+01	-6.08429428271E-01	-1.29260302151E+02	-6.08542190361E-01	-1.29171342139E+02	-1.33250114336E+01	-4.02741439168E+01
5.19800000000E+08	-1.33152594323E+01	-3.68553245996E+01	-6.09033674294E-01	-1.29467057700E+02	-6.07120458633E-01	-1.29369212733E+02	-1.33257393506E+01	-4.03753350547E+01
5.20400000000E+08	-1.33055602444E+01	-3.69804482385E+01	-6.06299319780E-01	-1.29666639393E+02	-6.03870718858E-01	-1.29562589414E+02	-1.33151075234E+01	-4.04674400736E+01
5.21000000000E+08	-1.32909112467E+01	-3.71476928688E+01	-6.05392339756E-01	-1.29873418794E+02	-6.02985595646E-01	-1.29780963833E+02	-1.32973541180E+01	-4.05982459365E+01
5.21600000000E+08	-1.32689407676E+01	-3.73227667256E+01	-6.08658037604E-01	-1.30086832966E+02	-6.05607809316E-01	-1.29998201414E+02	-1.32823077940E+01	-4.07885741459E+01
5.22200000000E+08	-1.32548739468E+01	-3.75363288599E+01	-6.09017268541E-01	-1.30291355078E+02	-6.07040644494E-01	-1.30221657717E+02	-1.32634962351E+01	-4.09796467413E+01
5.22800000000E+08	-1.32418884464E+01	-3.77969413427E+01	-6.12887092027E-01	-1.30505423835E+02	-6.09325062044E-01	-1.30427161477E+02	-1.32450004141E+01	-4.12141997425E+01
5.23400000000E+08	-1.32289057935E+01	-3.80600421093E+01	-6.16692001065E-01	-1.30705714624E+02	-6.13702378089E-01	-1.30632120720E+02	-1.32237250982E+01	-4.14628282385E+01
5.24000000000E+08	-1.32187045159E+01	-3.83588590545E+01	-6.22517994996E-01	-1.30904979728E+02	-6.17430010333E-01	-1.30839399461E+02	-1.32095353313E+01	-4.17708120622E+01
5.24600000000E+08	-1.32189243398E+01	-3.86805949710E+01	-6.31132428571E-01	-1.31111590827E+02	-6.27299420618E-01	-1.31048713702E+02	-1.31981505459E+01	-4.21490404148E+01
5.25200000000E+08	-1.32331407064E+01	-3.90205237758E+01	-6.36722697262E-01	-1.31288904709E+02	-6.31602029563E-01	-1.31215594466E+02	-1.32045188620E+01	-4.25558907503E+01
5.25800000000E+08	-1.32523923528E+01	-3.92415470702E+01	-6.41686885223E-01	-1.31439480862E+02	-6.40426325088E-01	-1.31385801906E+02	-1.32199190052E+01	-4.28789746374E+01
5.26400000000E+08	-1.32745240801E+01	-3.94055840473E+01	-6.42689130053E-01	-1.31600674466E+02	-6.39460709622E-01	-1.31523717612E+02	-1.32433231627E+01	-4.30923753510E+01
5.27000000000E+08	-1.32777415574E+01	-3.94480015083E+01	-6.39266600545E-01	-1.31769099620E+02	-6.37613175139E-01	-1.31712268190E+02	-1.32550322493E+01	-4.32106762072E+01
5.27600000000E+08	-1.32701295402E+01	-3.95029089715E+01	-6.40154158337E-01	-1.31960055923E+02	-6.38394900307E-01	-1.31916242025E+02	-1.32533549700E+01	-4.33552937910E+01
5.28200000000E+08	-1.32580077556E+01	-3.96699927299E+01	-6.40496455871E-01	-1.32162817889E+02	-6.39407406421E-01	-1.32124265106E+02	-1.32423646643E+01	-4.35622130257E+01
5.28800000000E+08	-1.32436201164E+01	-3.99376572874E+01	-6.42793686221E-01	-1.32376224506E+02	-6.41401504686E-01	-1.32321488842E+02	-1.32324029425E+01	-4.38196892833E+01
5.29400000000E+08	-1.32391469832E+01	-4.01688402958E+01	-6.47027751894E-01	-1.32572122320E+02	-6.47161909323E-01	-1.32511029689E+02	-1.32342996615E+01	-4.41050898638E+01
5.30000000000E+08	-1.32405826246E+01	-4.04130858757E+01	-6.53674008650E-01	-1.32758569451E+02	-6.51418934955E-01	-1.32676833246E+02	-1.32399833954E+01	-4.43919391044E+01
5.30600000000E+08	-1.32532489333E+01	-4.06265534968E+01	-6.55694853778E-01	-1.32929751059E+02	-6.52641806008E-01	-1.32846382281E+02	-1.32549491177E+01	-4.46595056296E+01
5.31200000000E+08	-1.32595901709E+01	-4.07805957112E+01	-6.53947448366E-01	-1.33099444829E+02	-6.53914009139E-01	-1.33035510880E+02	-1.32719496268E+01	-4.48414906499E+01
5.31800000000E+08	-1.32598642194E+01	-4.08578855579E+01	-6.53495422103E-01	-1.33286803912E+02	-6.50760472480E-01	-1.33217726945E+02	-1.32812697325E+01	-4.49865010680E+01
5.32400000000E+08	-1.32494658080E+01	-4.10011764866E+01	-6.52854398226E-01	-1.33493641149E+02	-6.51186944439E-01	-1.33411555877E+02	-1.32832581412E+01	-4.51060781894E+01
5.33000000000E+08	-1.32272594607E+01	-4.12130794841E+01	-6.54864947062E-01	-1.33684282949E+02	-6.54201725662E-01	-1.33641004497E+02	-1.32815238647E+01	-4.53346701312E+01
5.33600000000E+08	-1.32212104554E+01	-4.15020234877E+01	-6.57969903612E-01	-1.33909907565E+02	-6.56987831281E-01	-1.33827527686E+02	-1.32820777734E+01	-4.55234307435E+01
5.34200000000E+08	-1.32249190121E+01	-4.17864180663E+01	-6.60154917387E-01	-1.34099498466E+02	-6.59250695068E-01	-1.33996196060E+02	-1.32943682611E+01	-4.56803868544E+01
5.34800000000E+08	-1.32316018908E+01	-4.19965887606E+01	-6.62214941874E-01	-1.34275590499E+02	-6.59563329879E-01	-1.34178546842E+02	-1.32969505641E+01	-4.57826461074E+01
5.35400000000E+08	-1.32354502696E+01	-4.21974233918E+01	-6.63306031844E-01	-1.34475760658E+02	-6.57915171455E-01	-1.34397796415E+02	-1.32912942418E+01	-4.58811176409E+01
5.36000000000E+08	-1.32361907654E+01	-4.23464584352E+01	-6.60717372833E-01	-1.34667034862E+02	-6.58136791845E-01	-1.34587372616E+02	-1.32818734395E+01	-4.59959087728E+01
5.36600000000E+08	-1.32291815687E+01	-4.25099185224E+01	-6.60315042442E-01	-1.34884653268E+02	-6.58668473599E-01	-1.34816584864E+02	-1.32651385464E+01	-4.61670889198E+01
5.37200000000E+08	-1.32182268348E+01	-4.27291173239E+01	-6.62248923159E-01	-1.35094346230E+02	-6.60201267396E-01	-1.35044059606E+02	-1.32436287075E+01	-4.63803499361E+01
5.37800000000E+08	-1.32119676626E+01	-4.29554019607E+01	-6.65572462613E-01	-1.35345793736E+02	-6.61705449643E-01	-1.35248589595E+02	-1.32265205676E+01	-4.66166447172E+01
5.38400000000E+08	-1.32028190607E+01	-4.32297365452E+01	-6.70673289122E-01	-1.35544147639E+02	-6.65720658751E-01	-1.35482005538E+02	-1.32133286122E+01	-4.69312017255E+01
5.39000000000E+08	-1.32045543074E+01	-4.35116553393E+01	-6.75954161556E-01	-1.35751539937E+02	-6.72889633585E-01	-1.35682338471E+02	-1.32038920657E+01	-4.72855602499E+01
5.39600000000E+08	-1.32090521733E+01	-4.37990594911E+01	-6.78632744491E-01	-1.35972109989E+02	-6.78146960429E-01	-1.35874396260E+02	-1.32073168436E+01	-4.75753387788E+01
5.40200000000E+08	-1.32107049332E+01	-4.40503098490E+01	-6.85474228079E-01	-1.36153745789E+02	-6.80204743793E-01	-1.36071486291E+02	-1.32087778640E+01	-4.78694794955E+01
5.40800000000E+08	-1.32206503740E+01	-4.43134495513E+01	-6.91836677585E-01	-1.36356501621E+02	-6.85058477034E-01	-1.36281048961E+02	-1.32136397916E+01	-4.81560343667E+01
5.41400000000E+08	-1.32290706856E+01	-4.45224600552E+01	-6.94581050515E-01	-1.36538338517E+02	-6.89523617630E-01	-1.36490855795E+02	-1.32216934481E+01	-4.84174350084E+01
5.42000000000E+08	-1.32350178438E+01	-4.47371867345E+01	-6.96108660623E-01	-1.36749099795E+02	-6.90095021472E-01	-1.36697353985E+02	-1.32179412123E+01	-4.86580744563E+01
5.42600000000E+08	-1.32354258574E+01	-4.49954684277E+01	-7.01466909377E-01	-1.36946132244E+02	-6.95022628947E-01	-1.36882420935E+02	-1.32181806329E+01	-4.89432265365E+01
5.43200000000E+08	-1.32353456145E+01	-4.52552518752E+01	-7.03858594962E-01	-1.37140808686E+02	-6.99507688182E-01	-1.37092369607E+02	-1.32181262774E+01	-4.92767368346E+01
5.43800000000E+08	-1.32461477047E+01	-4.55134391894E+01	-7.11430491977E-01	-1.37341914115E+02	-7.06167842849E-01	-1.37283448478E+02	-1.32280690818E+01	-4.96142721141E+01
5.44400000000E+08	-1.32587736457E+01	-4.58000620569E+01	-7.15774410308E-01	-1.37526379201E+02	-7.11717020835E-01	-1.37479280791E+02	-1.32458378429E+01	-4.99587448886E+01
5.45000000000E+08	-1.32815542292E+01	-4.60177471606E+01	-7.19566744043E-01	-1.37689195737E+02	-7.16405627685E-01	-1.37657267427E+02	-1.32795613045E+01	-5.02554295335E+01
5.45600000000E+08	-1.33010552648E+01	-4.61770744986E+01	-7.19176589501E-01	-1.37855928360E+02	-7.16343316009E-01	-1.37818504202E+02	-1.33062088498E+01	-5.04438468246E+01
5.46200000000E+08	-1.33103765395E+01	-4.62861579171E+01	-7.17806455547E-01	-1.38040737653E+02	-7.15914810673E-01	-1.38004587694E+02	-1.33266982914E+01	-5.05085751961E+01
5.46800000000E+08	-1.33091741973E+01	-4.63644925110E+01	-7.16604325813E-01	-1.38255782275E+02	-7.14651552676E-01	-1.38213021909E+02	-1.33364681568E+01	-5.05992047840E+01
5.47400000000E+08	-1.32989726837E+01	-4.65656963677E+01	-7.15885956200E-01	-1.38496206815E+02	-7.12413900035E-01	-1.38429766277E+02	-1.33309771262E+01	-5.06993745268E+01
5.48000000000E+08	-1.32843411151E+01	-4.67906860125E+01	-7.17192014729E-01	-1.38688848224E+02	-7.13879755120E-01	-1.38659202103E+02	-1.33155424485E+01	-5.08600103588E+01
5.48600000000E+08	-1.32766409390E+01	-4.70963236786E+01	-7.24505756560E-01	-1.38945726463E+02	-7.19164106226E-01	-1.38882659753E+02	-1.33022367904E+01	-5.11045354614E+01
5.49200000000E+08	-1.32757528578E+01	-4.74720733342E+01	-7.28513245391E-01	-1.39176523232E+02	-7.26270315794E-01	-1.39126479106E+02	-1.32919722467E+01	-5.14226105856E+01
5.49800000000E+08	-1.32791004463E+01	-4.78673779272E+01	-7.37044869726E-01	-1.39395948638E+02	-7.33934756868E-01	-1.39332605539E+02	-1.32820613747E+01	-5.17810427017E+01
5.50400000000E+08	-1.32958336320E+01	-4.82462224771E+01	-7.45580948355E-01	-1.39569388430E+02	-7.43340942488E-01	-1.39529041206E+02	-1.32892098268E+01	-5.21971417687E+01
5.51000000000E+08	-1.33289577576E+01	-4.86304490181E+01	-7.57195781037E-01	-1.39762184318E+02	-7.56643673415E-01	-1.39720333623E+02	-1.33077312687E+01	-5.26670113147E+01
5.51600000000E+08	-1.33699685779E+01	-4.89348929168E+01	-7.63019427359E-01	-1.39919990488E+02	-7.65984369155E-01	-1.39867221438E+02	-1.33472125704E+01	-5.30289150918E+01
5.52200000000E+08	-1.34159760847E+01	-4.91853847764E+01	-7.67824935013E-01	-1.40048572132E+02	-7.68107308104E-01	-1.39990491158E+02	-1.33906461089E+01	-5.33507268115E+01
5.52800000000E+08	-1.34696915974E+01	-4.93387397677E+01	-7.66641969630E-01	-1.40186511680E+02	-7.67969271527E-01	-1.40113948083E+02	-1.34381301625E+01	-5.35262177511E+01
5.53400000000E+08	-1.35205601426E+01	-4.93505770046E+01	-7.63345957329E-01	-1.40344068141E+02	-7.64195135279E-01	-1.40260806961E+02	-1.34872555450E+01	-5.36106449107E+01
5.54000000000E+08	-1.35580800880E+01	-4.92666993048E+01	-7.55882717096E-01	-1.40495814484E+02	-7.53445243668E-01	-1.40406939919E+02	-1.35235114541E+01	-5.35642118161E+01
5.54600000000E+08	-1.35754362921E+01	-4.91022708336E+01	-7.48765065702E-01	-1.40713824941E+02	-7.41439223549E-01	-1.40641208852E+02	-1.35461403972E+01	-5.34848917042E+01
5.55200000000E+08	-1.35754711278E+01	-4.89570010773E+01	-7.37503330882E-01	-1.40907638263E+02	-7.33525955936E-01	-1.40836430483E+02	-1.35419663296E+01	-5.33649351756E+01
5.55800000000E+08	-1.35560175273E+01	-4.88760915548E+01	-7.30837610743E-01	-1.41181980984E+02	-7.25731706842E-01	-1.41091864236E+02	-1.35212945532E+01	-5.33122949623E+01
5.56400000000E+08	-1.35164624974E+01	-4.88873944026E+01	-7.25685055799E-01	-1.41444454934E+02	-7.22169999726E-01	-1.41370105139E+02	-1.34970360111E+01	-5.33853406949E+01
5.57000000000E+08	-1.34772609337E+01	-4.90408879839E+01	-7.25597806202E-01	-1.41703720610E+02	-7.23646871953E-01	-1.41641065913E+02	-1.34690121579E+01	-5.35418863885E+01
5.57600000000E+08	-1.34447856206E+01	-4.92894204995E+01	-7.29798612391E-01	-1.41967163902E+02	-7.26635478864E-01	-1.41913833469E+02	-1.34396055090E+01	-5.37674751496E+01
5.58200000000E+08	-1.34247131397E+01	-4.96613308364E+01	-7.35842961848E-01	-1.42226847995E+02	-7.32511121881E-01	-1.42158186754E+02	-1.34198471105E+01	-5.40108587230E+01
5.58800000000E+08	-1.34213138688E+01	-5.00490097109E+01	-7.42244530012E-01	-1.42484810896E+02	-7.38807274095E-01	-1.42407627137E+02	-1.34030403994E+01	-5.43084913943E+01
5.59400000000E+08	-1.34271936393E+01	-5.04098205601E+01	-7.49736190356E-01	-1.42698953964E+02	-7.45460561118E-01	-1.42623925778E+02	-1.33904014900E+01	-5.46127573726E+01
5.60000000000E+08	-1.34500550994E+01	-5.07394245980E+01	-7.56790509340E-01	-1.42907924464E+02	-7.53940591738E-01	-1.42849586733E+02	-1.33743857197E+01	-5.49552533473E+01
5.60600000000E+08	-1.34795030635E+01	-5.09264042139E+01	-7.62368120716E-01	-1.43105948893E+02	-7.57386826694E-01	-1.43045655499E+02	-1.33638560001E+01	-5.53285713399E+01
5.61200000000E+08	-1.35037623775E+01	-5.10109947458E+01	-7.64132966337E-01	-1.43293586274E+02	-7.62115094916E-01	-1.43237346967E+02	-1.33694233608E+01	-5.57110701046E+01
5.61800000000E+08	-1.35197238160E+01	-5.10107946870E+01	-7.65557069995E-01	-1.43483756132E+02	-7.62185954339E-01	-1.43445214051E+02	-1.33887236310E+01	-5.60792266601E+01
5.62400000000E+08	-1.35099493399E+01	-5.09988335095E+01	-7.63393396151E-01	-1.43709437840E+02	-7.60687309577E-01	-1.43635768726E+02	-1.34090415401E+01	-5.63846111011E+01
5.63000000000E+08	-1.34795523405E+01	-5.10511638729E+01	-7.61426958946E-01	-1.43933442226E+02	-7.58638415373E-01	-1.43864895493E+02	-1.34282130042E+01	-5.65856193376E+01
5.63600000000E+08	-1.34489003806E+01	-5.12442969553E+01	-7.60236392675E-01	-1.44180166935E+02	-7.57382487795E-01	-1.44101414895E+02	-1.34347463678E+01	-5.67439307186E+01
5.64200000000E+08	-1.34196753989E+01	-5.15182568022E+01	-7.59931940399E-01	-1.44426633915E+02	-7.57129032048E-01	-1.44351607253E+02	-1.34270286002E+01	-5.68974760302E+01
5.64800000000E+08	-1.34037536787E+01	-5.18686873151E+01	-7.65863713700E-01	-1.44688292210E+02	-7.59976452542E-01	-1.44617660835E+02	-1.34234138010E+01	-5.71151193392E+01
5.65400000000E+08	-1.33965626279E+01	-5.22173556666E+01	-7.69465540302E-01	-1.44940356946E+02	-7.64083043020E-01	-1.44870370198E+02	-1.34111268355E+01	-5.73877275358E+01
5.66000000000E+08	-1.33977252011E+01	-5.25604823167E+01	-7.76574880575E-01	-1.45163441943E+02	-7.69703071018E-01	-1.45104345647E+02	-1.34066507831E+01	-5.77362067029E+01
5.66600000000E+08	-1.34127761416E+01	-5.28826862786E+01	-7.79712987165E-01	-1.45381592203E+02	-7.77173095808E-01	-1.45346837907E+02	-1.34137193026E+01	-5.80357848610E+01
5.67200000000E+08	-1.34228435318E+01	-5.31221401074E+01	-7.83075229307E-01	-1.45613973062E+02	-7.79444239933E-01	-1.45554194074E+02	-1.34158511639E+01	-5.83242661750E+01
5.67800000000E+08	-1.34276011607E+01	-5.33402403130E+01	-7.85218853369E-01	-1.45823506292E+02	-7.80955001914E-01	-1.45796523821E+02	-1.34247242618E+01	-5.85798339479E+01
5.68400000000E+08	-1.34296099117E+01	-5.35347706329E+01	-7.88106129166E-01	-1.46053928659E+02	-7.85315597277E-01	-1.46040903252E+02	-1.34320072039E+01	-5.88036462029E+01
